Freq.	V(out)*15.4882
1.46502258576486e+000	(-6.61612873938963e-003dB,1.68832730865051e-002°)
2.93004517152972e+000	(-6.61434965388759e-003dB,3.37665408509021e-002°)
4.39506775729459e+000	(-6.61138451496211e-003dB,5.06497980035982e-002°)
5.86009034305945e+000	(-6.60723332221425e-003dB,6.75330391412427e-002°)
7.32511292882431e+000	(-6.60189607942521e-003dB,8.44162590230405e-002°)
8.79013551458918e+000	(-6.59537279031680e-003dB,1.01299452289038e-001°)
1.02551581003540e+001	(-6.58766345868554e-003dB,1.18182613622661e-001°)
1.17201806861189e+001	(-6.57876809155459e-003dB,1.35065737693841e-001°)
1.31852032718838e+001	(-6.56868669440339e-003dB,1.51948819196941e-001°)
1.46502258576486e+001	(-6.55741927431767e-003dB,1.68831852807426e-001°)
1.61152484434135e+001	(-6.54496583837968e-003dB,1.85714833192701e-001°)
1.75802710291784e+001	(-6.53132639783433e-003dB,2.02597755044636e-001°)
1.90452936149432e+001	(-6.51650095897712e-003dB,2.19480613028089e-001°)
2.05103162007081e+001	(-6.50048953552808e-003dB,2.36363401828339e-001°)
2.19753387864730e+001	(-6.48329213711476e-003dB,2.53246116126692e-001°)
2.34403613722378e+001	(-6.46490877501238e-003dB,2.70128750601861e-001°)
2.49053839580027e+001	(-6.44533946212934e-003dB,2.87011299927252e-001°)
2.63704065437675e+001	(-6.42458421391622e-003dB,3.03893758788598e-001°)
2.78354291295324e+001	(-6.40264304412057e-003dB,3.20776121862272e-001°)
2.93004517152973e+001	(-6.37951596817320e-003dB,3.37658383824792e-001°)
3.07654743010621e+001	(-6.35520300236307e-003dB,3.54540539358240e-001°)
3.22304968868270e+001	(-6.32970416460442e-003dB,3.71422583142149e-001°)
3.36955194725919e+001	(-6.30301946953925e-003dB,3.88304509856204e-001°)
3.51605420583567e+001	(-6.27514894088291e-003dB,4.05186314181640e-001°)
3.66255646441216e+001	(-6.24609259574907e-003dB,4.22067990797140e-001°)
3.80905872298865e+001	(-6.21585045377892e-003dB,4.38949534381577e-001°)
3.95556098156513e+001	(-6.18442253623106e-003dB,4.55830939618089e-001°)
4.10206324014162e+001	(-6.15180886603649e-003dB,4.72712201187985e-001°)
4.24856549871810e+001	(-6.11800946777342e-003dB,4.89593313770758e-001°)
4.39506775729459e+001	(-6.08302436274964e-003dB,5.06474272046779e-001°)
4.54157001587108e+001	(-6.04685357639436e-003dB,5.23355070700045e-001°)
4.68807227444756e+001	(-6.00949713497430e-003dB,5.40235704408693e-001°)
4.83457453302405e+001	(-5.97095506227115e-003dB,5.57116167856502e-001°)
4.98107679160054e+001	(-5.93122738788916e-003dB,5.73996455727527e-001°)
5.12757905017702e+001	(-5.89031414056095e-003dB,5.90876562700652e-001°)
5.27408130875351e+001	(-5.84821534331000e-003dB,6.07756483459735e-001°)
5.42058356733000e+001	(-5.80493103399025e-003dB,6.24636212689655e-001°)
5.56708582590648e+001	(-5.76046123643030e-003dB,6.41515745071431e-001°)
5.71358808448297e+001	(-5.71480598602832e-003dB,6.58395075289814e-001°)
5.86009034305945e+001	(-5.66796531158165e-003dB,6.75274198026422e-001°)
6.00659260163594e+001	(-5.61993924767885e-003dB,6.92153107966595e-001°)
6.15309486021243e+001	(-5.57072783058203e-003dB,7.09031799796665e-001°)
6.29959711878891e+001	(-5.52033108910717e-003dB,7.25910268199171e-001°)
6.44609937736540e+001	(-5.46874906362288e-003dB,7.42788507859074e-001°)
6.59260163594189e+001	(-5.41598178960186e-003dB,7.59666513462994e-001°)
6.73910389451837e+001	(-5.36202930245720e-003dB,7.76544279696529e-001°)
6.88560615309486e+001	(-5.30689164098612e-003dB,7.93421801244968e-001°)
7.03210841167135e+001	(-5.25056884391450e-003dB,8.10299072793952e-001°)
7.17861067024783e+001	(-5.19306095085790e-003dB,8.27176089032880e-001°)
7.32511292882432e+001	(-5.13436800225391e-003dB,8.44052844646774e-001°)
7.47161518740081e+001	(-5.07449003933704e-003dB,8.60929334322740e-001°)
7.61811744597730e+001	(-5.01342710422162e-003dB,8.77805552751656e-001°)
7.76461970455378e+001	(-4.95117924062923e-003dB,8.94681494619723e-001°)
7.91112196313027e+001	(-4.88774649069778e-003dB,9.11557154614884e-001°)
8.05762422170676e+001	(-4.82312889980877e-003dB,9.28432527428223e-001°)
8.20412648028324e+001	(-4.75732651339532e-003dB,9.45307607748868e-001°)
8.35062873885973e+001	(-4.69033937771407e-003dB,9.62182390266033e-001°)
8.49713099743622e+001	(-4.62216753900373e-003dB,9.79056869670382e-001°)
8.64363325601271e+001	(-4.55281104682528e-003dB,9.95931040653042e-001°)
8.79013551458919e+001	(-4.48226994910068e-003dB,1.01280489790557e+000°)
8.93663777316568e+001	(-4.41054429539614e-003dB,1.02967843611965e+000°)
9.08314003174217e+001	(-4.33763413777011e-003dB,1.04655164998643e+000°)
9.22964229031865e+001	(-4.26353952333157e-003dB,1.06342453420019e+000°)
9.37614454889514e+001	(-4.18826050826735e-003dB,1.08029708345375e+000°)
9.52264680747163e+001	(-4.11179714218227e-003dB,1.09716929244135e+000°)
9.66914906604812e+001	(-4.03414948125598e-003dB,1.11404115585507e+000°)
9.81565132462460e+001	(-3.95531757922309e-003dB,1.13091266839120e+000°)
9.96215358320109e+001	(-3.87530149148301e-003dB,1.14778382474588e+000°)
1.01086558417776e+002	(-3.79410127422872e-003dB,1.16465461961306e+000°)
1.02551581003541e+002	(-3.71171698369029e-003dB,1.18152504768956e+000°)
1.04016603589306e+002	(-3.62814868103470e-003dB,1.19839510367246e+000°)
1.05481626175070e+002	(-3.54339642084773e-003dB,1.21526478225862e+000°)
1.06946648760835e+002	(-3.45746026429580e-003dB,1.23213407814757e+000°)
1.08411671346600e+002	(-3.37034027092175e-003dB,1.24900298603493e+000°)
1.09876693932365e+002	(-3.28203650355998e-003dB,1.26587150062237e+000°)
1.11341716518130e+002	(-3.19254902259926e-003dB,1.28273961660801e+000°)
1.12806739103895e+002	(-3.10187789250302e-003dB,1.29960732869263e+000°)
1.14271761689660e+002	(-3.01002317695292e-003dB,1.31647463157623e+000°)
1.15736784275424e+002	(-2.91698494046760e-003dB,1.33334151996178e+000°)
1.17201806861189e+002	(-2.82276324670858e-003dB,1.35020798854945e+000°)
1.18666829446954e+002	(-2.72735816020026e-003dB,1.36707403204238e+000°)
1.20131852032719e+002	(-2.63076975204028e-003dB,1.38393964514443e+000°)
1.21596874618484e+002	(-2.53299808840294e-003dB,1.40080482255897e+000°)
1.23061897204249e+002	(-2.43404323793013e-003dB,1.41766955899108e+000°)
1.24526919790014e+002	(-2.33390527089581e-003dB,1.43453384914442e+000°)
1.25991942375779e+002	(-2.23258425595328e-003dB,1.45139768772567e+000°)
1.27456964961543e+002	(-2.13008026424331e-003dB,1.46826106944186e+000°)
1.28921987547308e+002	(-2.02639337016266e-003dB,1.48512398899934e+000°)
1.30387010133073e+002	(-1.92152364402751e-003dB,1.50198644110609e+000°)
1.31852032718838e+002	(-1.81547115943397e-003dB,1.51884842047016e+000°)
1.33317055304603e+002	(-1.70823599246016e-003dB,1.53570992180129e+000°)
1.34782077890368e+002	(-1.59981821833843e-003dB,1.55257093980855e+000°)
1.36247100476133e+002	(-1.49021791071461e-003dB,1.56943146920307e+000°)
1.37712123061898e+002	(-1.37943514894242e-003dB,1.58629150469637e+000°)
1.39177145647662e+002	(-1.26747001073568e-003dB,1.60315104100037e+000°)
1.40642168233427e+002	(-1.15432257301614e-003dB,1.62001007282697e+000°)
1.42107190819192e+002	(-1.03999291600459e-003dB,1.63686859488991e+000°)
1.43572213404957e+002	(-9.24481119068712e-004dB,1.65372660190395e+000°)
1.45037235990722e+002	(-8.07787265699455e-004dB,1.67058408858330e+000°)
1.46502258576487e+002	(-6.89911436929571e-004dB,1.68744104964426e+000°)
1.47967281162252e+002	(-5.70853709667244e-004dB,1.70429747980277e+000°)
1.49432303748016e+002	(-4.50614176504614e-004dB,1.72115337377718e+000°)
1.50897326333781e+002	(-3.29192916789542e-004dB,1.73800872628414e+000°)
1.52362348919546e+002	(-2.06590017321410e-004dB,1.75486353204276e+000°)
1.53827371505311e+002	(-8.28055632539327e-005dB,1.77171778577273e+000°)
1.55292394091076e+002	(4.21603602606400e-005dB,1.78857148219454e+000°)
1.56757416676841e+002	(1.68307663120845e-004dB,1.80542461602989e+000°)
1.58222439262606e+002	(2.95636258550094e-004dB,1.82227718200037e+000°)
1.59687461848371e+002	(4.24146054827818e-004dB,1.83912917482868e+000°)
1.61152484434135e+002	(5.53836964310617e-004dB,1.85598058923873e+000°)
1.62617507019900e+002	(6.84708895291843e-004dB,1.87283141995521e+000°)
1.64082529605665e+002	(8.16761756030564e-004dB,1.88968166170309e+000°)
1.65547552191430e+002	(9.49995453149125e-004dB,1.90653130920928e+000°)
1.67012574777195e+002	(1.08440989576595e-003dB,1.92338035719993e+000°)
1.68477597362960e+002	(1.22000498638189e-003dB,1.94022880040390e+000°)
1.69942619948725e+002	(1.35678063326281e-003dB,1.95707663354959e+000°)
1.71407642534490e+002	(1.49473673729575e-003dB,1.97392385136762e+000°)
1.72872665120254e+002	(1.63387320512514e-003dB,1.99077044858752e+000°)
1.74337687706019e+002	(1.77418993598435e-003dB,2.00761641994119e+000°)
1.75802710291784e+002	(1.91568683320210e-003dB,2.02446176016154e+000°)
1.77267732877549e+002	(2.05836380016460e-003dB,2.04130646398101e+000°)
1.78732755463314e+002	(2.20222073197246e-003dB,2.05815052613532e+000°)
1.80197778049079e+002	(2.34725753119625e-003dB,2.07499394135843e+000°)
1.81662800634844e+002	(2.49347409458941e-003dB,2.09183670438735e+000°)
1.83127823220609e+002	(2.64087032224527e-003dB,2.10867880995880e+000°)
1.84592845806373e+002	(2.78944610849074e-003dB,2.12552025281072e+000°)
1.86057868392138e+002	(2.93920135009823e-003dB,2.14236102768261e+000°)
1.87522890977903e+002	(3.09013594143289e-003dB,2.15920112931466e+000°)
1.88987913563668e+002	(3.24224977929781e-003dB,2.17604055244711e+000°)
1.90452936149433e+002	(3.39554275471909e-003dB,2.19287929182299e+000°)
1.91917958735198e+002	(3.55001476124018e-003dB,2.20971734218440e+000°)
1.93382981320963e+002	(3.70566568993247e-003dB,2.22655469827565e+000°)
1.94848003906727e+002	(3.86249543515018e-003dB,2.24339135484183e+000°)
1.96313026492492e+002	(4.02050388138659e-003dB,2.26022730662886e+000°)
1.97778049078257e+002	(4.17969092384201e-003dB,2.27706254838399e+000°)
1.99243071664022e+002	(4.34005644785637e-003dB,2.29389707485499e+000°)
2.00708094249787e+002	(4.50160034204913e-003dB,2.31073088079095e+000°)
2.02173116835552e+002	(4.66432249342483e-003dB,2.32756396094216e+000°)
2.03638139421317e+002	(4.82822278730978e-003dB,2.34439631006019e+000°)
2.05103162007082e+002	(4.99330111075058e-003dB,2.36122792289692e+000°)
2.06568184592846e+002	(5.15955734660430e-003dB,2.37805879420640e+000°)
2.08033207178611e+002	(5.32699138112747e-003dB,2.39488891874162e+000°)
2.09498229764376e+002	(5.49560309557226e-003dB,2.41171829125931e+000°)
2.10963252350141e+002	(5.66539237121563e-003dB,2.42854690651556e+000°)
2.12428274935906e+002	(5.83635908934789e-003dB,2.44537475926840e+000°)
2.13893297521671e+002	(6.00850313211890e-003dB,2.46220184427644e+000°)
2.15358320107436e+002	(6.18182437836169e-003dB,2.47902815629926e+000°)
2.16823342693201e+002	(6.35632270692704e-003dB,2.49585369009892e+000°)
2.18288365278965e+002	(6.53199799505894e-003dB,2.51267844043693e+000°)
2.19753387864730e+002	(6.70885011995204e-003dB,2.52950240207627e+000°)
2.21218410450495e+002	(6.88687896301264e-003dB,2.54632556978230e+000°)
2.22683433036260e+002	(7.06608439077443e-003dB,2.56314793831981e+000°)
2.24148455622025e+002	(7.24646628709533e-003dB,2.57996950245571e+000°)
2.25613478207790e+002	(7.42802451938308e-003dB,2.59679025695825e+000°)
2.27078500793555e+002	(7.61075896492139e-003dB,2.61361019659664e+000°)
2.28543523379320e+002	(7.79466949363071e-003dB,2.63042931614071e+000°)
2.30008545965084e+002	(7.97975597704459e-003dB,2.64724761036246e+000°)
2.31473568550849e+002	(8.16601828843292e-003dB,2.66406507403420e+000°)
2.32938591136614e+002	(8.35345629439913e-003dB,2.68088170193004e+000°)
2.34403613722379e+002	(8.54206986739722e-003dB,2.69769748882453e+000°)
2.35868636308144e+002	(8.73185887243114e-003dB,2.71451242949508e+000°)
2.37333658893909e+002	(8.92282317953290e-003dB,2.73132651871784e+000°)
2.38798681479674e+002	(9.11496265537160e-003dB,2.74813975127294e+000°)
2.40263704065438e+002	(9.30827716422885e-003dB,2.76495212193980e+000°)
2.41728726651203e+002	(9.50276657120682e-003dB,2.78176362549918e+000°)
2.43193749236968e+002	(9.69843074305862e-003dB,2.79857425673407e+000°)
2.44658771822733e+002	(9.89526954078486e-003dB,2.81538401042904e+000°)
2.46123794408498e+002	(1.00932828279065e-002dB,2.83219288136760e+000°)
2.47588816994263e+002	(1.02924704662862e-002dB,2.84900086433748e+000°)
2.49053839580028e+002	(1.04928323170112e-002dB,2.86580795412497e+000°)
2.50518862165793e+002	(1.06943682386713e-002dB,2.88261414552041e+000°)
2.51983884751557e+002	(1.08970780940510e-002dB,2.89941943331295e+000°)
2.53448907337322e+002	(1.11009617409469e-002dB,2.91622381229484e+000°)
2.54913929923087e+002	(1.13060190339331e-002dB,2.93302727725835e+000°)
2.56378952508852e+002	(1.15122498341807e-002dB,2.94982982299810e+000°)
2.57843975094617e+002	(1.17196539971264e-002dB,2.96663144430860e+000°)
2.59308997680382e+002	(1.19282313765282e-002dB,2.98343213598797e+000°)
2.60774020266147e+002	(1.21379818278739e-002dB,3.00023189283388e+000°)
2.62239042851912e+002	(1.23489052058048e-002dB,3.01703070964587e+000°)
2.63704065437676e+002	(1.25610013609243e-002dB,3.03382858122444e+000°)
2.65169088023441e+002	(1.27742701470747e-002dB,3.05062550237251e+000°)
2.66634110609206e+002	(1.29887114173561e-002dB,3.06742146789320e+000°)
2.68099133194971e+002	(1.32043250199497e-002dB,3.08421647259147e+000°)
2.69564155780736e+002	(1.34211108046720e-002dB,3.10101051127393e+000°)
2.71029178366501e+002	(1.36390686230224e-002dB,3.11780357874836e+000°)
2.72494200952266e+002	(1.38581983199342e-002dB,3.13459566982428e+000°)
2.73959223538030e+002	(1.40784997453365e-002dB,3.15138677931193e+000°)
2.75424246123795e+002	(1.42999727441990e-002dB,3.16817690202326e+000°)
2.76889268709560e+002	(1.45226171648599e-002dB,3.18496603277155e+000°)
2.78354291295325e+002	(1.47464328498670e-002dB,3.20175416637233e+000°)
2.79819313881090e+002	(1.49714196451258e-002dB,3.21854129764107e+000°)
2.81284336466855e+002	(1.51975773924252e-002dB,3.23532742139617e+000°)
2.82749359052620e+002	(1.54249059360702e-002dB,3.25211253245653e+000°)
2.84214381638385e+002	(1.56534051146062e-002dB,3.26889662564334e+000°)
2.85679404224149e+002	(1.58830747724065e-002dB,3.28567969577804e+000°)
2.87144426809914e+002	(1.61139147497215e-002dB,3.30246173768451e+000°)
2.88609449395679e+002	(1.63459248843673e-002dB,3.31924274618815e+000°)
2.90074471981444e+002	(1.65791050166791e-002dB,3.33602271611525e+000°)
2.91539494567209e+002	(1.68134549853402e-002dB,3.35280164229414e+000°)
2.93004517152974e+002	(1.70489746233223e-002dB,3.36957951955427e+000°)
2.94469539738739e+002	(1.72856637702284e-002dB,3.38635634272625e+000°)
2.95934562324504e+002	(1.75235222607073e-002dB,3.40313210664366e+000°)
2.97399584910268e+002	(1.77625499286711e-002dB,3.41990680613993e+000°)
2.98864607496033e+002	(1.80027466096360e-002dB,3.43668043605140e+000°)
3.00329630081798e+002	(1.82441121359434e-002dB,3.45345299121447e+000°)
3.01794652667563e+002	(1.84866463399052e-002dB,3.47022446646879e+000°)
3.03259675253328e+002	(1.87303490538848e-002dB,3.48699485665401e+000°)
3.04724697839093e+002	(1.89752201061484e-002dB,3.50376415661237e+000°)
3.06189720424858e+002	(1.92212593291382e-002dB,3.52053236118720e+000°)
3.07654743010623e+002	(1.94684665511995e-002dB,3.53729946522350e+000°)
3.09119765596387e+002	(1.97168416007016e-002dB,3.55406546356836e+000°)
3.10584788182152e+002	(1.99663843060683e-002dB,3.57083035106922e+000°)
3.12049810767917e+002	(2.02170944907890e-002dB,3.58759412257662e+000°)
3.13514833353682e+002	(2.04689719841925e-002dB,3.60435677294133e+000°)
3.14979855939447e+002	(2.07220166131383e-002dB,3.62111829701712e+000°)
3.16444878525212e+002	(2.09762281979517e-002dB,3.63787868965788e+000°)
3.17909901110977e+002	(2.12316065622835e-002dB,3.65463794572026e+000°)
3.19374923696741e+002	(2.14881515331091e-002dB,3.67139606006227e+000°)
3.20839946282506e+002	(2.17458629292125e-002dB,3.68815302754317e+000°)
3.22304968868271e+002	(2.20047405735444e-002dB,3.70490884302452e+000°)
3.23769991454036e+002	(2.22647842833310e-002dB,3.72166350136888e+000°)
3.25235014039801e+002	(2.25259938831933e-002dB,3.73841699744101e+000°)
3.26700036625566e+002	(2.27883691888301e-002dB,3.75516932610685e+000°)
3.28165059211331e+002	(2.30519100191873e-002dB,3.77192048223436e+000°)
3.29630081797096e+002	(2.33166161916454e-002dB,3.78867046069340e+000°)
3.31095104382860e+002	(2.35824875219721e-002dB,3.80541925635464e+000°)
3.32560126968625e+002	(2.38495238276168e-002dB,3.82216686409143e+000°)
3.34025149554390e+002	(2.41177249219777e-002dB,3.83891327877803e+000°)
3.35490172140155e+002	(2.43870906217356e-002dB,3.85565849529138e+000°)
3.36955194725920e+002	(2.46576207387361e-002dB,3.87240250850891e+000°)
3.38420217311685e+002	(2.49293150839979e-002dB,3.88914531331087e+000°)
3.39885239897450e+002	(2.52021734702540e-002dB,3.90588690457844e+000°)
3.41350262483215e+002	(2.54761957102589e-002dB,3.92262727719549e+000°)
3.42815285068979e+002	(2.57513816160334e-002dB,3.93936642604640e+000°)
3.44280307654744e+002	(2.60277309929998e-002dB,3.95610434601806e+000°)
3.45745330240509e+002	(2.63052436516030e-002dB,3.97284103199939e+000°)
3.47210352826274e+002	(2.65839193990247e-002dB,3.98957647888019e+000°)
3.48675375412039e+002	(2.68637580441425e-002dB,4.00631068155286e+000°)
3.50140397997804e+002	(2.71447593934195e-002dB,4.02304363491106e+000°)
3.51605420583569e+002	(2.74269232500395e-002dB,4.03977533385073e+000°)
3.53070443169333e+002	(2.77102494222284e-002dB,4.05650577326894e+000°)
3.54535465755098e+002	(2.79947377108078e-002dB,4.07323494806533e+000°)
3.56000488340863e+002	(2.82803879207747e-002dB,4.08996285314049e+000°)
3.57465510926628e+002	(2.85671998563628e-002dB,4.10668948339733e+000°)
3.58930533512393e+002	(2.88551733168789e-002dB,4.12341483374128e+000°)
3.60395556098158e+002	(2.91443081050252e-002dB,4.14013889907795e+000°)
3.61860578683923e+002	(2.94346040177690e-002dB,4.15686167431640e+000°)
3.63325601269688e+002	(2.97260608603421e-002dB,4.17358315436612e+000°)
3.64790623855452e+002	(3.00186784248802e-002dB,4.19030333413979e+000°)
3.66255646441217e+002	(3.03124565142578e-002dB,4.20702220855103e+000°)
3.67720669026982e+002	(3.06073949239994e-002dB,4.22373977251589e+000°)
3.69185691612747e+002	(3.09034934505103e-002dB,4.24045602095181e+000°)
3.70650714198512e+002	(3.12007518902426e-002dB,4.25717094877825e+000°)
3.72115736784277e+002	(3.14991700355945e-002dB,4.27388455091670e+000°)
3.73580759370042e+002	(3.17987476831068e-002dB,4.29059682229069e+000°)
3.75045781955807e+002	(3.20994846252923e-002dB,4.30730775782507e+000°)
3.76510804541571e+002	(3.24013806547098e-002dB,4.32401735244696e+000°)
3.77975827127336e+002	(3.27044355623158e-002dB,4.34072560108572e+000°)
3.79440849713101e+002	(3.30086491415828e-002dB,4.35743249867237e+000°)
3.80905872298866e+002	(3.33140211803293e-002dB,4.37413804013917e+000°)
3.82370894884631e+002	(3.36205514680257e-002dB,4.39084222042171e+000°)
3.83835917470396e+002	(3.39282397958729e-002dB,4.40754503445602e+000°)
3.85300940056161e+002	(3.42370859476964e-002dB,4.42424647718156e+000°)
3.86765962641926e+002	(3.45470897140055e-002dB,4.44094654353824e+000°)
3.88230985227690e+002	(3.48582508828451e-002dB,4.45764522846905e+000°)
3.89696007813455e+002	(3.51705692349575e-002dB,4.47434252691878e+000°)
3.91161030399220e+002	(3.54840445585530e-002dB,4.49103843383341e+000°)
3.92626052984985e+002	(3.57986766369201e-002dB,4.50773294416197e+000°)
3.94091075570750e+002	(3.61144652526305e-002dB,4.52442605285492e+000°)
3.95556098156515e+002	(3.64314101907727e-002dB,4.54111775486465e+000°)
3.97021120742280e+002	(3.67495112298994e-002dB,4.55780804514572e+000°)
3.98486143328044e+002	(3.70687681544009e-002dB,4.57449691865482e+000°)
3.99951165913809e+002	(3.73891807413534e-002dB,4.59118437035022e+000°)
4.01416188499574e+002	(3.77107487727684e-002dB,4.60787039519276e+000°)
4.02881211085339e+002	(3.80334720266434e-002dB,4.62455498814495e+000°)
4.04346233671104e+002	(3.83573502810609e-002dB,4.64123814417127e+000°)
4.05811256256869e+002	(3.86823833133010e-002dB,4.65791985823861e+000°)
4.07276278842634e+002	(3.90085708999173e-002dB,4.67460012531574e+000°)
4.08741301428399e+002	(3.93359128167076e-002dB,4.69127894037339e+000°)
