Freq.	V(out)*15.4882
1.46502258576486e+000	(-2.01913252815695e+001dB,5.75148984288426e-001°)
2.93004517152972e+000	(-2.01897278717209e+001dB,1.15014027109925e+000°)
4.39506775729459e+000	(-2.01870668522518e+001dB,1.72481639727942e+000°)
5.86009034305945e+000	(-2.01833442150274e+001dB,2.29902036748184e+000°)
7.32511292882431e+000	(-2.01785627418118e+001dB,2.87259588598753e+000°)
8.79013551458918e+000	(-2.01727259973653e+001dB,3.44538758576935e+000°)
1.02551581003540e+001	(-2.01658383208298e+001dB,4.01724125430382e+000°)
1.17201806861189e+001	(-2.01579048148532e+001dB,4.58800405505870e+000°)
1.31852032718838e+001	(-2.01489313335685e+001dB,5.15752474401803e+000°)
1.46502258576486e+001	(-2.01389244681739e+001dB,5.72565388043322e+000°)
1.61152484434135e+001	(-2.01278915312737e+001dB,6.29224403110498e+000°)
1.75802710291784e+001	(-2.01158405394799e+001dB,6.85714996755111e+000°)
1.90452936149432e+001	(-2.01027801946829e+001dB,7.42022885542530e+000°)
2.05103162007081e+001	(-2.00887198634061e+001dB,7.98134043557438e+000°)
2.19753387864730e+001	(-2.00736695556543e+001dB,8.54034719632335e+000°)
2.34403613722378e+001	(-2.00576399018601e+001dB,9.09711453640424e+000°)
2.49053839580027e+001	(-2.00406421289808e+001dB,9.65151091820648e+000°)
2.63704065437675e+001	(-2.00226880357259e+001dB,1.02034080109753e+001°)
2.78354291295324e+001	(-2.00037899665890e+001dB,1.07526808236664e+001°)
2.93004517152973e+001	(-1.99839607856443e+001dB,1.12992078272256e+001°)
3.07654743010621e+001	(-1.99632138487632e+001dB,1.18428710661414e+001°)
3.22304968868270e+001	(-1.99415629763590e+001dB,1.23835562591324e+001°)
3.36955194725919e+001	(-1.99190224250314e+001dB,1.29211528889407e+001°)
3.51605420583567e+001	(-1.98956068589143e+001dB,1.34555542811983e+001°)
3.66255646441216e+001	(-1.98713313210621e+001dB,1.39866576724475e+001°)
3.80905872298865e+001	(-1.98462112046252e+001dB,1.45143642674024e+001°)
3.95556098156513e+001	(-1.98202622238338e+001dB,1.50385792856106e+001°)
4.10206324014162e+001	(-1.97935003853525e+001dB,1.55592119976842e+001°)
4.24856549871810e+001	(-1.97659419596927e+001dB,1.60761757513755e+001°)
4.39506775729459e+001	(-1.97376034528685e+001dB,1.65893879877472e+001°)
4.54157001587108e+001	(-1.97085015784381e+001dB,1.70987702477382e+001°)
4.68807227444756e+001	(-1.96786532298546e+001dB,1.76042481694899e+001°)
4.83457453302405e+001	(-1.96480754537783e+001dB,1.81057514767866e+001°)
4.98107679160054e+001	(-1.96167854233589e+001dB,1.86032139589928e+001°)
5.12757905017702e+001	(-1.95848004124116e+001dB,1.90965734429148e+001°)
5.27408130875351e+001	(-1.95521377706423e+001dB,1.95857717570125e+001°)
5.42058356733000e+001	(-1.95188148988409e+001dB,2.00707546883831e+001°)
5.56708582590648e+001	(-1.94848492257990e+001dB,2.05514719330041e+001°)
5.71358808448297e+001	(-1.94502581851368e+001dB,2.10278770396461e+001°)
5.86009034305945e+001	(-1.94150591937424e+001dB,2.14999273479639e+001°)
6.00659260163594e+001	(-1.93792696305774e+001dB,2.19675839211923e+001°)
6.15309486021243e+001	(-1.93429068168190e+001dB,2.24308114739312e+001°)
6.29959711878891e+001	(-1.93059879965074e+001dB,2.28895782954459e+001°)
6.44609937736540e+001	(-1.92685303184882e+001dB,2.33438561689720e+001°)
6.59260163594189e+001	(-1.92305508191200e+001dB,2.37936202874210e+001°)
6.73910389451837e+001	(-1.91920664060199e+001dB,2.42388491659546e+001°)
6.88560615309486e+001	(-1.91530938425488e+001dB,2.46795245518070e+001°)
7.03210841167135e+001	(-1.91136497336248e+001dB,2.51156313317958e+001°)
7.17861067024783e+001	(-1.90737505121796e+001dB,2.55471574378792e+001°)
7.32511292882432e+001	(-1.90334124266125e+001dB,2.59740937511527e+001°)
7.47161518740081e+001	(-1.89926515291581e+001dB,2.63964340046201e+001°)
7.61811744597730e+001	(-1.89514836652202e+001dB,2.68141746850981e+001°)
7.76461970455378e+001	(-1.89099244635411e+001dB,2.72273149345595e+001°)
7.91112196313027e+001	(-1.88679893270408e+001dB,2.76358564512220e+001°)
8.05762422170676e+001	(-1.88256934249130e+001dB,2.80398033906633e+001°)
8.20412648028324e+001	(-1.87830516850331e+001dB,2.84391622672296e+001°)
8.35062873885973e+001	(-1.87400787875982e+001dB,2.88339418559822e+001°)
8.49713099743622e+001	(-1.86967891591670e+001dB,2.92241530954059e+001°)
8.64363325601271e+001	(-1.86531969675937e+001dB,2.96098089910970e+001°)
8.79013551458919e+001	(-1.86093161176425e+001dB,2.99909245206123e+001°)
8.93663777316568e+001	(-1.85651602472686e+001dB,3.03675165396653e+001°)
9.08314003174217e+001	(-1.85207427244491e+001dB,3.07396036898154e+001°)
9.22964229031865e+001	(-1.84760766449031e+001dB,3.11072063078091e+001°)
9.37614454889514e+001	(-1.84311748297927e+001dB,3.14703463366661e+001°)
9.52264680747163e+001	(-1.83860498248040e+001dB,3.18290472386759e+001°)
9.66914906604812e+001	(-1.83407138988247e+001dB,3.21833339103344e+001°)
9.81565132462460e+001	(-1.82951790439846e+001dB,3.25332325993736e+001°)
9.96215358320109e+001	(-1.82494569755731e+001dB,3.28787708238996e+001°)
1.01086558417776e+002	(-1.82035591324720e+001dB,3.32199772937229e+001°)
1.02551581003541e+002	(-1.81574966782570e+001dB,3.35568818339373e+001°)
1.04016603589306e+002	(-1.81112805022210e+001dB,3.38895153107506e+001°)
1.05481626175070e+002	(-1.80649212213545e+001dB,3.42179095596453e+001°)
1.06946648760835e+002	(-1.80184291820250e+001dB,3.45420973158260e+001°)
1.08411671346600e+002	(-1.79718144624501e+001dB,3.48621121470224e+001°)
1.09876693932365e+002	(-1.79250868750629e+001dB,3.51779883885996e+001°)
1.11341716518130e+002	(-1.78782559693969e+001dB,3.54897610810041e+001°)
1.12806739103895e+002	(-1.78313310349893e+001dB,3.57974659095131e+001°)
1.14271761689660e+002	(-1.77843211048444e+001dB,3.61011391462904e+001°)
1.15736784275424e+002	(-1.77372349585365e+001dB,3.64008175946875e+001°)
1.17201806861189e+002	(-1.76900811260733e+001dB,3.66965385358093e+001°)
1.18666829446954e+002	(-1.76428678913748e+001dB,3.69883396772654e+001°)
1.20131852032719e+002	(-1.75956032964086e+001dB,3.72762591041150e+001°)
1.21596874618484e+002	(-1.75482951449337e+001dB,3.75603352319157e+001°)
1.23061897204249e+002	(-1.75009510066005e+001dB,3.78406067618753e+001°)
1.24526919790014e+002	(-1.74535782214773e+001dB,3.81171126380563e+001°)
1.25991942375779e+002	(-1.74061839038032e+001dB,3.83898920065388e+001°)
1.27456964961543e+002	(-1.73587749465638e+001dB,3.86589841765568e+001°)
1.28921987547308e+002	(-1.73113580258329e+001dB,3.89244285835210e+001°)
1.30387010133073e+002	(-1.72639396050957e+001dB,3.91862647538726e+001°)
1.31852032718838e+002	(-1.72165259397672e+001dB,3.94445322717367e+001°)
1.33317055304603e+002	(-1.71691230816007e+001dB,3.96992707472992e+001°)
1.34782077890368e+002	(-1.71217368829199e+001dB,3.99505197868574e+001°)
1.36247100476133e+002	(-1.70743730015705e+001dB,4.01983189645269e+001°)
1.37712123061898e+002	(-1.70270369046771e+001dB,4.04427077954638e+001°)
1.39177145647662e+002	(-1.69797338736116e+001dB,4.06837257106584e+001°)
1.40642168233427e+002	(-1.69324690081067e+001dB,4.09214120331567e+001°)
1.42107190819192e+002	(-1.68852472308488e+001dB,4.11558059557078e+001°)
1.43572213404957e+002	(-1.68380732915129e+001dB,4.13869465197504e+001°)
1.45037235990722e+002	(-1.67909517712538e+001dB,4.16148725957187e+001°)
1.46502258576487e+002	(-1.67438870869541e+001dB,4.18396228645989e+001°)
1.47967281162252e+002	(-1.66968834953399e+001dB,4.20612358006799e+001°)
1.49432303748016e+002	(-1.66499450971997e+001dB,4.22797496554675e+001°)
1.50897326333781e+002	(-1.66030758414344e+001dB,4.24952024426965e+001°)
1.52362348919546e+002	(-1.65562795290919e+001dB,4.27076319244046e+001°)
1.53827371505311e+002	(-1.65095598173826e+001dB,4.29170755980211e+001°)
1.55292394091076e+002	(-1.64629202235472e+001dB,4.31235706844177e+001°)
1.56757416676841e+002	(-1.64163641286868e+001dB,4.33271541168865e+001°)
1.58222439262606e+002	(-1.63698947816259e+001dB,4.35278625310046e+001°)
1.59687461848371e+002	(-1.63235153025221e+001dB,4.37257322553308e+001°)
1.61152484434135e+002	(-1.62772286866190e+001dB,4.39207993029146e+001°)
1.62617507019900e+002	(-1.62310378076171e+001dB,4.41130993635515e+001°)
1.64082529605665e+002	(-1.61849454214119e+001dB,4.43026677967890e+001°)
1.65547552191430e+002	(-1.61389541693217e+001dB,4.44895396255974e+001°)
1.67012574777195e+002	(-1.60930665816527e+001dB,4.46737495307199e+001°)
1.68477597362960e+002	(-1.60472850807123e+001dB,4.48553318456179e+001°)
1.69942619948725e+002	(-1.60016119842290e+001dB,4.50343205520320e+001°)
1.71407642534490e+002	(-1.59560495084044e+001dB,4.52107492760877e+001°)
1.72872665120254e+002	(-1.59105997710196e+001dB,4.53846512849351e+001°)
1.74337687706019e+002	(-1.58652647944277e+001dB,4.55560594838868e+001°)
1.75802710291784e+002	(-1.58200465082774e+001dB,4.57250064140210e+001°)
1.77267732877549e+002	(-1.57749467526881e+001dB,4.58915242502573e+001°)
1.78732755463314e+002	(-1.57299672809176e+001dB,4.60556447998305e+001°)
1.80197778049079e+002	(-1.56851097619039e+001dB,4.62173995011600e+001°)
1.81662800634844e+002	(-1.56403757831195e+001dB,4.63768194231129e+001°)
1.83127823220609e+002	(-1.55957668530337e+001dB,4.65339352646007e+001°)
1.84592845806373e+002	(-1.55512844035362e+001dB,4.66887773545101e+001°)
1.86057868392138e+002	(-1.55069297927751e+001dB,4.68413756519708e+001°)
1.87522890977903e+002	(-1.54627043069562e+001dB,4.69917597468573e+001°)
1.88987913563668e+002	(-1.54186091631655e+001dB,4.71399588606274e+001°)
1.90452936149433e+002	(-1.53746455112962e+001dB,4.72860018473675e+001°)
1.91917958735198e+002	(-1.53308144364231e+001dB,4.74299171951046e+001°)
1.93382981320963e+002	(-1.52871169607770e+001dB,4.75717330273213e+001°)
1.94848003906727e+002	(-1.52435540459996e+001dB,4.77114771046972e+001°)
1.96313026492492e+002	(-1.52001265949165e+001dB,4.78491768270185e+001°)
1.97778049078257e+002	(-1.51568354538466e+001dB,4.79848592353007e+001°)
1.99243071664022e+002	(-1.51136814141642e+001dB,4.81185510140357e+001°)
2.00708094249787e+002	(-1.50706652142438e+001dB,4.82502784936166e+001°)
2.02173116835552e+002	(-1.50277875413813e+001dB,4.83800676529097e+001°)
2.03638139421317e+002	(-1.49850490333370e+001dB,4.85079441219298e+001°)
2.05103162007082e+002	(-1.49424502801958e+001dB,4.86339331846641e+001°)
2.06568184592846e+002	(-1.48999918259239e+001dB,4.87580597819861e+001°)
2.08033207178611e+002	(-1.48576741699465e+001dB,4.88803485146720e+001°)
2.09498229764376e+002	(-1.48154977687929e+001dB,4.90008236465191e+001°)
2.10963252350141e+002	(-1.47734630374963e+001dB,4.91195091075292e+001°)
2.12428274935906e+002	(-1.47315703509782e+001dB,4.92364284971694e+001°)
2.13893297521671e+002	(-1.46898200457971e+001dB,4.93516050877282e+001°)
2.15358320107436e+002	(-1.46482124209668e+001dB,4.94650618276644e+001°)
2.16823342693201e+002	(-1.46067477398608e+001dB,4.95768213450945e+001°)
2.18288365278965e+002	(-1.45654262311458e+001dB,4.96869059512519e+001°)
2.19753387864730e+002	(-1.45242480900562e+001dB,4.97953376440186e+001°)
2.21218410450495e+002	(-1.44832134796729e+001dB,4.99021381114908e+001°)
2.22683433036260e+002	(-1.44423225322357e+001dB,5.00073287355794e+001°)
2.24148455622025e+002	(-1.44015753499383e+001dB,5.01109305955986e+001°)
2.25613478207790e+002	(-1.43609720062121e+001dB,5.02129644719100e+001°)
2.27078500793555e+002	(-1.43205125470159e+001dB,5.03134508495868e+001°)
2.28543523379320e+002	(-1.42801969913744e+001dB,5.04124099220314e+001°)
2.30008545965084e+002	(-1.42400253328144e+001dB,5.05098615946715e+001°)
2.31473568550849e+002	(-1.41999975400782e+001dB,5.06058254886034e+001°)
2.32938591136614e+002	(-1.41601135582730e+001dB,5.07003209442730e+001°)
2.34403613722379e+002	(-1.41203733094952e+001dB,5.07933670251117e+001°)
2.35868636308144e+002	(-1.40807766939775e+001dB,5.08849825212087e+001°)
2.37333658893909e+002	(-1.40413235907834e+001dB,5.09751859529403e+001°)
2.38798681479674e+002	(-1.40020138587018e+001dB,5.10639955746041e+001°)
2.40263704065438e+002	(-1.39628473369720e+001dB,5.11514293780263e+001°)
2.41728726651203e+002	(-1.39238238461685e+001dB,5.12375050961676e+001°)
2.43193749236968e+002	(-1.38849431888200e+001dB,5.13222402066883e+001°)
2.44658771822733e+002	(-1.38462051502578e+001dB,5.14056519355143e+001°)
2.46123794408498e+002	(-1.38076094991176e+001dB,5.14877572603526e+001°)
2.47588816994263e+002	(-1.37691559883818e+001dB,5.15685729142285e+001°)
2.49053839580028e+002	(-1.37308443555111e+001dB,5.16481153889232e+001°)
2.50518862165793e+002	(-1.36926743235567e+001dB,5.17264009384658e+001°)
2.51983884751557e+002	(-1.36546456015183e+001dB,5.18034455825369e+001°)
2.53448907337322e+002	(-1.36167578850479e+001dB,5.18792651098711e+001°)
2.54913929923087e+002	(-1.35790108568672e+001dB,5.19538750816068e+001°)
2.56378952508852e+002	(-1.35414041874616e+001dB,5.20272908346278e+001°)
2.57843975094617e+002	(-1.35039375356714e+001dB,5.20995274848664e+001°)
2.59308997680382e+002	(-1.34666105489409e+001dB,5.21705999305427e+001°)
2.60774020266147e+002	(-1.34294228641712e+001dB,5.22405228554250e+001°)
2.62239042851912e+002	(-1.33923741079630e+001dB,5.23093107320020e+001°)
2.63704065437676e+002	(-1.33554638970417e+001dB,5.23769778246384e+001°)
2.65169088023441e+002	(-1.33186918389207e+001dB,5.24435381927149e+001°)
2.66634110609206e+002	(-1.32820575321815e+001dB,5.25090056937002e+001°)
2.68099133194971e+002	(-1.32455605670654e+001dB,5.25733939862150e+001°)
2.69564155780736e+002	(-1.32092005255418e+001dB,5.26367165330143e+001°)
2.71029178366501e+002	(-1.31729769820826e+001dB,5.26989866039944e+001°)
2.72494200952266e+002	(-1.31368895038306e+001dB,5.27602172791126e+001°)
2.73959223538030e+002	(-1.31009376509954e+001dB,5.28204214512871e+001°)
2.75424246123795e+002	(-1.30651209772780e+001dB,5.28796118292669e+001°)
2.76889268709560e+002	(-1.30294390301149e+001dB,5.29378009404449e+001°)
2.78354291295325e+002	(-1.29938913510370e+001dB,5.29950011336481e+001°)
2.79819313881090e+002	(-1.29584774760598e+001dB,5.30512245818909e+001°)
2.81284336466855e+002	(-1.29231969359631e+001dB,5.31064832850837e+001°)
2.82749359052620e+002	(-1.28880492564904e+001dB,5.31607890726969e+001°)
2.84214381638385e+002	(-1.28530339586783e+001dB,5.32141536064005e+001°)
2.85679404224149e+002	(-1.28181505593317e+001dB,5.32665883826806e+001°)
2.87144426809914e+002	(-1.27833985710092e+001dB,5.33181047353739e+001°)
2.88609449395679e+002	(-1.27487775024508e+001dB,5.33687138382084e+001°)
2.90074471981444e+002	(-1.27142868586438e+001dB,5.34184267072733e+001°)
2.91539494567209e+002	(-1.26799261414159e+001dB,5.34672542035029e+001°)
2.93004517152974e+002	(-1.26456948492863e+001dB,5.35152070350567e+001°)
2.94469539738739e+002	(-1.26115924779016e+001dB,5.35622957597175e+001°)
2.95934562324504e+002	(-1.25776185201662e+001dB,5.36085307872263e+001°)
2.97399584910268e+002	(-1.25437724665779e+001dB,5.36539223816034e+001°)
2.98864607496033e+002	(-1.25100538052310e+001dB,5.36984806634019e+001°)
3.00329630081798e+002	(-1.24764620221086e+001dB,5.37422156119554e+001°)
3.01794652667563e+002	(-1.24429966014379e+001dB,5.37851370675990e+001°)
3.03259675253328e+002	(-1.24096570255180e+001dB,5.38272547338039e+001°)
3.04724697839093e+002	(-1.23764427751325e+001dB,5.38685781793383e+001°)
3.06189720424858e+002	(-1.23433533297725e+001dB,5.39091168403756e+001°)
3.07654743010623e+002	(-1.23103881675441e+001dB,5.39488800225386e+001°)
3.09119765596387e+002	(-1.22775467655768e+001dB,5.39878769029644e+001°)
3.10584788182152e+002	(-1.22448285999752e+001dB,5.40261165322880e+001°)
3.12049810767917e+002	(-1.22122331461879e+001dB,5.40636078366410e+001°)
3.13514833353682e+002	(-1.21797598788080e+001dB,5.41003596195574e+001°)
3.14979855939447e+002	(-1.21474082721284e+001dB,5.41363805639301e+001°)
3.16444878525212e+002	(-1.21151777999601e+001dB,5.41716792338593e+001°)
3.17909901110977e+002	(-1.20830679357975e+001dB,5.42062640765075e+001°)
3.19374923696741e+002	(-1.20510781530495e+001dB,5.42401434239323e+001°)
3.20839946282506e+002	(-1.20192079250271e+001dB,5.42733254948652e+001°)
3.22304968868271e+002	(-1.19874567252072e+001dB,5.43058183964895e+001°)
3.23769991454036e+002	(-1.19558240272117e+001dB,5.43376301261622e+001°)
3.25235014039801e+002	(-1.19243093048521e+001dB,5.43687685731133e+001°)
3.26700036625566e+002	(-1.18929120324945e+001dB,5.43992415201523e+001°)
3.28165059211331e+002	(-1.18616316848568e+001dB,5.44290566452880e+001°)
3.29630081797096e+002	(-1.18304677371835e+001dB,5.44582215233610e+001°)
3.31095104382860e+002	(-1.17994196654863e+001dB,5.44867436276575e+001°)
3.32560126968625e+002	(-1.17684869464153e+001dB,5.45146303314580e+001°)
3.34025149554390e+002	(-1.17376690574938e+001dB,5.45418889095990e+001°)
3.35490172140155e+002	(-1.17069654771373e+001dB,5.45685265399871e+001°)
3.36955194725920e+002	(-1.16763756845860e+001dB,5.45945503050780e+001°)
3.38420217311685e+002	(-1.16458991602560e+001dB,5.46199671933780e+001°)
3.39885239897450e+002	(-1.16155353856234e+001dB,5.46447841008700e+001°)
3.41350262483215e+002	(-1.15852838433304e+001dB,5.46690078324400e+001°)
3.42815285068979e+002	(-1.15551440171622e+001dB,5.46926451032658e+001°)
3.44280307654744e+002	(-1.15251153922749e+001dB,5.47157025402127e+001°)
3.45745330240509e+002	(-1.14951974551667e+001dB,5.47381866831756e+001°)
3.47210352826274e+002	(-1.14653896936474e+001dB,5.47601039864002e+001°)
3.48675375412039e+002	(-1.14356915970305e+001dB,5.47814608198072e+001°)
3.50140397997804e+002	(-1.14061026560410e+001dB,5.48022634702629e+001°)
3.51605420583569e+002	(-1.13766223631723e+001dB,5.48225181428799e+001°)
3.53070443169333e+002	(-1.13472502121251e+001dB,5.48422309621916e+001°)
3.54535465755098e+002	(-1.13179856985257e+001dB,5.48614079734540e+001°)
3.56000488340863e+002	(-1.12888283196004e+001dB,5.48800551438065e+001°)
3.57465510926628e+002	(-1.12597775742706e+001dB,5.48981783634619e+001°)
3.58930533512393e+002	(-1.12308329630623e+001dB,5.49157834468556e+001°)
3.60395556098158e+002	(-1.12019939884229e+001dB,5.49328761338218e+001°)
3.61860578683923e+002	(-1.11732601546131e+001dB,5.49494620907033e+001°)
3.63325601269688e+002	(-1.11446309676825e+001dB,5.49655469114517e+001°)
3.64790623855452e+002	(-1.11161059356113e+001dB,5.49811361187285e+001°)
3.66255646441217e+002	(-1.10876845681703e+001dB,5.49962351649555e+001°)
3.67720669026982e+002	(-1.10593663771438e+001dB,5.50108494333906e+001°)
3.69185691612747e+002	(-1.10311508761865e+001dB,5.50249842391431e+001°)
3.70650714198512e+002	(-1.10030375810582e+001dB,5.50386448302167e+001°)
3.72115736784277e+002	(-1.09750260093927e+001dB,5.50518363884796e+001°)
3.73580759370042e+002	(-1.09471156809160e+001dB,5.50645640306735e+001°)
3.75045781955807e+002	(-1.09193061173113e+001dB,5.50768328093627e+001°)
3.76510804541571e+002	(-1.08915968423641e+001dB,5.50886477139014e+001°)
3.77975827127336e+002	(-1.08639873820077e+001dB,5.51000136713733e+001°)
3.79440849713101e+002	(-1.08364772641427e+001dB,5.51109355474897e+001°)
3.80905872298866e+002	(-1.08090660188345e+001dB,5.51214181475157e+001°)
3.82370894884631e+002	(-1.07817531782152e+001dB,5.51314662171485e+001°)
3.83835917470396e+002	(-1.07545382765949e+001dB,5.51410844434055e+001°)
3.85300940056161e+002	(-1.07274208505160e+001dB,5.51502774554902e+001°)
3.86765962641926e+002	(-1.07004004384967e+001dB,5.51590498256076e+001°)
3.88230985227690e+002	(-1.06734765813933e+001dB,5.51674060698404e+001°)
3.89696007813455e+002	(-1.06466488220152e+001dB,5.51753506489206e+001°)
3.91161030399220e+002	(-1.06199167056254e+001dB,5.51828879690968e+001°)
3.92626052984985e+002	(-1.05932797794704e+001dB,5.51900223828670e+001°)
3.94091075570750e+002	(-1.05667375930256e+001dB,5.51967581897895e+001°)
3.95556098156515e+002	(-1.05402896981279e+001dB,5.52030996372656e+001°)
3.97021120742280e+002	(-1.05139356486016e+001dB,5.52090509212464e+001°)
3.98486143328044e+002	(-1.04876750006420e+001dB,5.52146161870237e+001°)
3.99951165913809e+002	(-1.04615073126371e+001dB,5.52197995299364e+001°)
4.01416188499574e+002	(-1.04354321450576e+001dB,5.52246049960750e+001°)
4.02881211085339e+002	(-1.04094490608399e+001dB,5.52290365830362e+001°)
4.04346233671104e+002	(-1.03835576248810e+001dB,5.52330982405541e+001°)
4.05811256256869e+002	(-1.03577574045467e+001dB,5.52367938712481e+001°)
