Freq.	V(out)*15.4882
2.93004517152973e+000	(-6.61434965388373e-003dB,3.37665408509022e-002°)
5.86009034305946e+000	(-6.60723332221521e-003dB,6.75330391466605e-002°)
8.79013551458918e+000	(-6.59537279031680e-003dB,1.01299452289038e-001°)
1.17201806861189e+001	(-6.57876809155459e-003dB,1.35065737693841e-001°)
1.46502258576486e+001	(-6.55741927431767e-003dB,1.68831852807426e-001°)
1.75802710291784e+001	(-6.53132639783433e-003dB,2.02597755044636e-001°)
2.05103162007081e+001	(-6.50048953553290e-003dB,2.36363401831048e-001°)
2.34403613722378e+001	(-6.46490877501238e-003dB,2.70128750601861e-001°)
2.63704065437675e+001	(-6.42458421391622e-003dB,3.03893758788598e-001°)
2.93004517152973e+001	(-6.37951596817320e-003dB,3.37658383824792e-001°)
3.22304968868270e+001	(-6.32970416460442e-003dB,3.71422583142150e-001°)
3.51605420583567e+001	(-6.27514894088291e-003dB,4.05186314181640e-001°)
3.80905872298865e+001	(-6.21585045377892e-003dB,4.38949534381578e-001°)
4.10206324014162e+001	(-6.15180886603166e-003dB,4.72712201186630e-001°)
4.39506775729459e+001	(-6.08302436274964e-003dB,5.06474272046779e-001°)
4.68807227444756e+001	(-6.00949713496562e-003dB,5.40235704407338e-001°)
4.98107679160054e+001	(-5.93122738788916e-003dB,5.73996455727527e-001°)
5.27408130875351e+001	(-5.84821534331000e-003dB,6.07756483459735e-001°)
5.56708582590648e+001	(-5.76046123643030e-003dB,6.41515745071431e-001°)
5.86009034305945e+001	(-5.66796531158165e-003dB,6.75274198026422e-001°)
6.15309486021243e+001	(-5.57072783058203e-003dB,7.09031799796666e-001°)
6.44609937736540e+001	(-5.46874906362288e-003dB,7.42788507859075e-001°)
6.73910389451837e+001	(-5.36202930245720e-003dB,7.76544279696529e-001°)
7.03210841167135e+001	(-5.25056884391450e-003dB,8.10299072793952e-001°)
7.32511292882432e+001	(-5.13436800225391e-003dB,8.44052844646774e-001°)
7.61811744597729e+001	(-5.01342710422162e-003dB,8.77805552751656e-001°)
7.91112196313026e+001	(-4.88774649069778e-003dB,9.11557154614883e-001°)
8.20412648028324e+001	(-4.75732651339532e-003dB,9.45307607748867e-001°)
8.49713099743621e+001	(-4.62216753900373e-003dB,9.79056869670382e-001°)
8.79013551458918e+001	(-4.48226994909875e-003dB,1.01280489790625e+000°)
9.08314003174216e+001	(-4.33763413777011e-003dB,1.04655164998643e+000°)
9.37614454889513e+001	(-4.18826050827025e-003dB,1.08029708345443e+000°)
9.66914906604810e+001	(-4.03414948125598e-003dB,1.11404115585506e+000°)
9.96215358320107e+001	(-3.87530149148301e-003dB,1.14778382474588e+000°)
1.02551581003540e+002	(-3.71171698369029e-003dB,1.18152504768955e+000°)
1.05481626175070e+002	(-3.54339642084773e-003dB,1.21526478225862e+000°)
1.08411671346600e+002	(-3.37034027092175e-003dB,1.24900298603493e+000°)
1.11341716518130e+002	(-3.19254902259926e-003dB,1.28273961660801e+000°)
1.14271761689659e+002	(-3.01002317695292e-003dB,1.31647463157622e+000°)
1.17201806861189e+002	(-2.82276324670858e-003dB,1.35020798854944e+000°)
1.20131852032719e+002	(-2.63076975204028e-003dB,1.38393964514443e+000°)
1.23061897204249e+002	(-2.43404323793013e-003dB,1.41766955899107e+000°)
1.25991942375778e+002	(-2.23258425595328e-003dB,1.45139768772567e+000°)
1.28921987547308e+002	(-2.02639337016266e-003dB,1.48512398899933e+000°)
1.31852032718838e+002	(-1.81547115943397e-003dB,1.51884842047015e+000°)
1.34782077890368e+002	(-1.59981821833843e-003dB,1.55257093980855e+000°)
1.37712123061897e+002	(-1.37943514894724e-003dB,1.58629150469671e+000°)
1.40642168233427e+002	(-1.15432257301614e-003dB,1.62001007282697e+000°)
1.43572213404957e+002	(-9.24481119068712e-004dB,1.65372660190394e+000°)
1.46502258576486e+002	(-6.89911436929571e-004dB,1.68744104964425e+000°)
1.49432303748016e+002	(-4.50614176500757e-004dB,1.72115337377683e+000°)
1.52362348919546e+002	(-2.06590017321410e-004dB,1.75486353204276e+000°)
1.55292394091076e+002	(4.21603602606400e-005dB,1.78857148219454e+000°)
1.58222439262605e+002	(2.95636258550094e-004dB,1.82227718200037e+000°)
1.61152484434135e+002	(5.53836964310617e-004dB,1.85598058923873e+000°)
1.64082529605665e+002	(8.16761756030564e-004dB,1.88968166170309e+000°)
1.67012574777195e+002	(1.08440989576402e-003dB,1.92338035720027e+000°)
1.69942619948724e+002	(1.35678063326088e-003dB,1.95707663354992e+000°)
1.72872665120254e+002	(1.63387320512514e-003dB,1.99077044858735e+000°)
1.75802710291784e+002	(1.91568683320210e-003dB,2.02446176016154e+000°)
1.78732755463314e+002	(2.20222073197246e-003dB,2.05815052613532e+000°)
1.81662800634843e+002	(2.49347409458941e-003dB,2.09183670438735e+000°)
1.84592845806373e+002	(2.78944610849074e-003dB,2.12552025281071e+000°)
1.87522890977903e+002	(3.09013594143289e-003dB,2.15920112931465e+000°)
1.90452936149433e+002	(3.39554275471909e-003dB,2.19287929182299e+000°)
1.93382981320962e+002	(3.70566568993247e-003dB,2.22655469827565e+000°)
1.96313026492492e+002	(4.02050388138659e-003dB,2.26022730662886e+000°)
1.99243071664022e+002	(4.34005644785637e-003dB,2.29389707485499e+000°)
2.02173116835552e+002	(4.66432249341905e-003dB,2.32756396094233e+000°)
2.05103162007081e+002	(4.99330111075058e-003dB,2.36122792289675e+000°)
2.08033207178611e+002	(5.32699138112747e-003dB,2.39488891874162e+000°)
2.10963252350141e+002	(5.66539237121563e-003dB,2.42854690651556e+000°)
2.13893297521671e+002	(6.00850313211890e-003dB,2.46220184427644e+000°)
2.16823342693200e+002	(6.35632270692704e-003dB,2.49585369009891e+000°)
2.19753387864730e+002	(6.70885011995204e-003dB,2.52950240207627e+000°)
2.22683433036260e+002	(7.06608439077635e-003dB,2.56314793831964e+000°)
2.25613478207789e+002	(7.42802451938308e-003dB,2.59679025695825e+000°)
2.28543523379319e+002	(7.79466949363071e-003dB,2.63042931614071e+000°)
2.31473568550849e+002	(8.16601828843292e-003dB,2.66406507403419e+000°)
2.34403613722379e+002	(8.54206986739722e-003dB,2.69769748882453e+000°)
2.37333658893908e+002	(8.92282317953290e-003dB,2.73132651871783e+000°)
2.40263704065438e+002	(9.30827716423462e-003dB,2.76495212193945e+000°)
2.43193749236968e+002	(9.69843074305862e-003dB,2.79857425673407e+000°)
2.46123794408498e+002	(1.00932828279065e-002dB,2.83219288136759e+000°)
2.49053839580027e+002	(1.04928323170112e-002dB,2.86580795412496e+000°)
2.51983884751557e+002	(1.08970780940510e-002dB,2.89941943331294e+000°)
2.54913929923087e+002	(1.13060190339312e-002dB,2.93302727725835e+000°)
2.57843975094617e+002	(1.17196539971187e-002dB,2.96663144430894e+000°)
2.60774020266146e+002	(1.21379818278739e-002dB,3.00023189283387e+000°)
2.63704065437676e+002	(1.25610013609243e-002dB,3.03382858122443e+000°)
2.66634110609206e+002	(1.29887114173618e-002dB,3.06742146789303e+000°)
2.69564155780736e+002	(1.34211108046720e-002dB,3.10101051127393e+000°)
2.72494200952265e+002	(1.38581983199342e-002dB,3.13459566982428e+000°)
2.75424246123795e+002	(1.42999727441990e-002dB,3.16817690202326e+000°)
2.78354291295325e+002	(1.47464328498709e-002dB,3.20175416637215e+000°)
2.81284336466855e+002	(1.51975773924252e-002dB,3.23532742139617e+000°)
2.84214381638384e+002	(1.56534051146062e-002dB,3.26889662564334e+000°)
2.87144426809914e+002	(1.61139147497196e-002dB,3.30246173768451e+000°)
2.90074471981444e+002	(1.65791050166791e-002dB,3.33602271611525e+000°)
2.93004517152974e+002	(1.70489746233223e-002dB,3.36957951955427e+000°)
2.95934562324503e+002	(1.75235222607073e-002dB,3.40313210664365e+000°)
2.98864607496033e+002	(1.80027466096360e-002dB,3.43668043605139e+000°)
3.01794652667563e+002	(1.84866463399052e-002dB,3.47022446646879e+000°)
3.04724697839092e+002	(1.89752201061484e-002dB,3.50376415661237e+000°)
3.07654743010622e+002	(1.94684665511995e-002dB,3.53729946522350e+000°)
3.10584788182152e+002	(1.99663843060683e-002dB,3.57083035106921e+000°)
3.13514833353682e+002	(2.04689719841925e-002dB,3.60435677294132e+000°)
3.16444878525211e+002	(2.09762281979517e-002dB,3.63787868965788e+000°)
3.19374923696741e+002	(2.14881515331091e-002dB,3.67139606006227e+000°)
3.22304968868271e+002	(2.20047405735444e-002dB,3.70490884302451e+000°)
3.25235014039801e+002	(2.25259938831933e-002dB,3.73841699744101e+000°)
3.28165059211330e+002	(2.30519100191853e-002dB,3.77192048223452e+000°)
3.31095104382860e+002	(2.35824875219778e-002dB,3.80541925635446e+000°)
3.34025149554390e+002	(2.41177249219777e-002dB,3.83891327877803e+000°)
3.36955194725920e+002	(2.46576207387361e-002dB,3.87240250850890e+000°)
3.39885239897449e+002	(2.52021734702540e-002dB,3.90588690457843e+000°)
3.42815285068979e+002	(2.57513816160372e-002dB,3.93936642604622e+000°)
3.45745330240509e+002	(2.63052436516107e-002dB,3.97284103199921e+000°)
3.48675375412039e+002	(2.68637580441425e-002dB,4.00631068155285e+000°)
3.51605420583568e+002	(2.74269232500395e-002dB,4.03977533385073e+000°)
3.54535465755098e+002	(2.79947377108078e-002dB,4.07323494806533e+000°)
3.57465510926628e+002	(2.85671998563628e-002dB,4.10668948339733e+000°)
3.60395556098158e+002	(2.91443081050252e-002dB,4.14013889907795e+000°)
3.63325601269687e+002	(2.97260608603421e-002dB,4.17358315436611e+000°)
3.66255646441217e+002	(3.03124565142578e-002dB,4.20702220855120e+000°)
3.69185691612747e+002	(3.09034934505103e-002dB,4.24045602095181e+000°)
3.72115736784277e+002	(3.14991700356002e-002dB,4.27388455091653e+000°)
3.75045781955806e+002	(3.20994846252923e-002dB,4.30730775782507e+000°)
3.77975827127336e+002	(3.27044355623158e-002dB,4.34072560108571e+000°)
3.80905872298866e+002	(3.33140211803312e-002dB,4.37413804013925e+000°)
3.83835917470395e+002	(3.39282397958729e-002dB,4.40754503445602e+000°)
3.86765962641925e+002	(3.45470897140055e-002dB,4.44094654353824e+000°)
3.89696007813455e+002	(3.51705692349575e-002dB,4.47434252691878e+000°)
3.92626052984985e+002	(3.57986766369201e-002dB,4.50773294416196e+000°)
3.95556098156514e+002	(3.64314101907727e-002dB,4.54111775486465e+000°)
3.98486143328044e+002	(3.70687681544009e-002dB,4.57449691865482e+000°)
4.01416188499574e+002	(3.77107487727703e-002dB,4.60787039519294e+000°)
4.04346233671104e+002	(3.83573502810609e-002dB,4.64123814417127e+000°)
4.07276278842633e+002	(3.90085708999192e-002dB,4.67460012531591e+000°)
4.10206324014163e+002	(3.96644088378761e-002dB,4.70795629838432e+000°)
4.13136369185693e+002	(4.03248622938214e-002dB,4.74130662316780e+000°)
4.16066414357223e+002	(4.09899294512882e-002dB,4.77465105949084e+000°)
4.18996459528752e+002	(4.16596084850319e-002dB,4.80798956721088e+000°)
4.21926504700282e+002	(4.23338975553096e-002dB,4.84132210621937e+000°)
4.24856549871812e+002	(4.30127948119999e-002dB,4.87464863644156e+000°)
4.27786595043342e+002	(4.36962983880179e-002dB,4.90796911783681e+000°)
4.30716640214871e+002	(4.43844064149931e-002dB,4.94128351039866e+000°)
4.33646685386401e+002	(4.50771170010945e-002dB,4.97459177415521e+000°)
4.36576730557931e+002	(4.57744282507355e-002dB,5.00789386916915e+000°)
4.39506775729461e+002	(4.64763382489936e-002dB,5.04118975553847e+000°)
4.42436820900990e+002	(4.71828450789413e-002dB,5.07447939339544e+000°)
4.45366866072520e+002	(4.78939468001858e-002dB,5.10776274290850e+000°)
4.48296911244050e+002	(4.86096414687084e-002dB,5.14103976428140e+000°)
4.51226956415580e+002	(4.93299271278227e-002dB,5.17431041775320e+000°)
4.54157001587109e+002	(5.00548018032086e-002dB,5.20757466359985e+000°)
4.57087046758639e+002	(5.07842635178064e-002dB,5.24083246213231e+000°)
4.60017091930169e+002	(5.15183102745147e-002dB,5.27408377369869e+000°)
4.62947137101699e+002	(5.22569400685677e-002dB,5.30732855868355e+000°)
4.65877182273228e+002	(5.30001508801373e-002dB,5.34056677750816e+000°)
4.68807227444758e+002	(5.37479406850749e-002dB,5.37379839063042e+000°)
4.71737272616288e+002	(5.45003074408845e-002dB,5.40702335854620e+000°)
4.74667317787817e+002	(5.52572490934280e-002dB,5.44024164178761e+000°)
4.77597362959347e+002	(5.60187635792798e-002dB,5.47345320092613e+000°)
4.80527408130877e+002	(5.67848488217670e-002dB,5.50665799656924e+000°)
4.83457453302407e+002	(5.75555027358224e-002dB,5.53985598936313e+000°)
4.86387498473936e+002	(5.83307232181914e-002dB,5.57304713999257e+000°)
4.89317543645466e+002	(5.91105081622151e-002dB,5.60623140918018e+000°)
4.92247588816996e+002	(5.98948554431279e-002dB,5.63940875768719e+000°)
4.95177633988526e+002	(6.06837629286148e-002dB,5.67257914631414e+000°)
4.98107679160055e+002	(6.14772284732678e-002dB,5.70574253590021e+000°)
5.01037724331585e+002	(6.22752499160007e-002dB,5.73889888732372e+000°)
5.03967769503115e+002	(6.30778250948852e-002dB,5.77204816150250e+000°)
5.06897814674645e+002	(6.38849518250669e-002dB,5.80519031939409e+000°)
5.09827859846174e+002	(6.46966279184127e-002dB,5.83832532199544e+000°)
5.12757905017704e+002	(6.55128511687523e-002dB,5.87145313034436e+000°)
5.15687950189234e+002	(6.63336193642999e-002dB,5.90457370551766e+000°)
5.18617995360764e+002	(6.71589302768731e-002dB,5.93768700863350e+000°)
5.21548040532293e+002	(6.79887816743915e-002dB,5.97079300084993e+000°)
5.24478085703823e+002	(6.88231713018351e-002dB,6.00389164336652e+000°)
5.27408130875353e+002	(6.96620969043989e-002dB,6.03698289742311e+000°)
5.30338176046883e+002	(7.05055562101977e-002dB,6.07006672430097e+000°)
5.33268221218412e+002	(7.13535469344008e-002dB,6.10314308532297e+000°)
5.36198266389942e+002	(7.22060667858714e-002dB,6.13621194185315e+000°)
5.39128311561472e+002	(7.30631134572576e-002dB,6.16927325529746e+000°)
5.42058356733001e+002	(7.39246846357470e-002dB,6.20232698710351e+000°)
5.44988401904531e+002	(7.47907779932154e-002dB,6.23537309876161e+000°)
5.47918447076061e+002	(7.56613911887188e-002dB,6.26841155180407e+000°)
5.50848492247591e+002	(7.65365218750685e-002dB,6.30144230780544e+000°)
5.53778537419120e+002	(7.74161676889941e-002dB,6.33446532838343e+000°)
5.56708582590650e+002	(7.83003262627112e-002dB,6.36748057519795e+000°)
5.59638627762180e+002	(7.91889952091268e-002dB,6.40048800995296e+000°)
5.62568672933710e+002	(8.00821721366147e-002dB,6.43348759439471e+000°)
5.65498718105239e+002	(8.09798546384372e-002dB,6.46647929031354e+000°)
5.68428763276769e+002	(8.18820402992542e-002dB,6.49946305954287e+000°)
5.71358808448299e+002	(8.27887266951863e-002dB,6.53243886396059e+000°)
5.74288853619829e+002	(8.36999113799091e-002dB,6.56540666548808e+000°)
5.77218898791358e+002	(8.46155919125500e-002dB,6.59836642609086e+000°)
5.80148943962888e+002	(8.55357658265045e-002dB,6.63131810777925e+000°)
5.83078989134418e+002	(8.64604306574355e-002dB,6.66426167260740e+000°)
5.86009034305948e+002	(8.73895839201769e-002dB,6.69719708267501e+000°)
5.88939079477477e+002	(8.83232231204454e-002dB,6.73012430012620e+000°)
5.91869124649007e+002	(8.92613457554978e-002dB,6.76304328715028e+000°)
5.94799169820537e+002	(9.02039493142773e-002dB,6.79595400598165e+000°)
5.97729214992067e+002	(9.11510312675312e-002dB,6.82885641890057e+000°)
6.00659260163596e+002	(9.21025890818145e-002dB,6.86175048823232e+000°)
6.03589305335126e+002	(9.30586202087917e-002dB,6.89463617634846e+000°)
6.06519350506656e+002	(9.40191220943629e-002dB,6.92751344566646e+000°)
6.09449395678186e+002	(9.49840921638821e-002dB,6.96038225864996e+000°)
6.12379440849715e+002	(9.59535278451178e-002dB,6.99324257780860e+000°)
6.15309486021245e+002	(9.69274265453799e-002dB,7.02609436569890e+000°)
6.18239531192775e+002	(9.79057856662554e-002dB,7.05893758492382e+000°)
6.21169576364304e+002	(9.88886025962653e-002dB,7.09177219813339e+000°)
6.24099621535834e+002	(9.98758747133252e-002dB,7.12459816802464e+000°)
6.27029666707364e+002	(1.00867599387313e-001dB,7.15741545734147e+000°)
6.29959711878894e+002	(1.01863773975080e-001dB,7.19022402887570e+000°)
6.32889757050423e+002	(1.02864395822128e-001dB,7.22302384546622e+000°)
6.35819802221953e+002	(1.03869462268425e-001dB,7.25581486999970e+000°)
6.38749847393483e+002	(1.04878970638578e-001dB,7.28859706541091e+000°)
6.41679892565013e+002	(1.05892918247520e-001dB,7.32137039468277e+000°)
6.44609937736542e+002	(1.06911302403123e-001dB,7.35413482084607e+000°)
6.47539982908072e+002	(1.07934120398712e-001dB,7.38689030698001e+000°)
6.50470028079602e+002	(1.08961369515664e-001dB,7.41963681621302e+000°)
6.53400073251132e+002	(1.09993047034845e-001dB,7.45237431172109e+000°)
6.56330118422661e+002	(1.11029150214469e-001dB,7.48510275673035e+000°)
6.59260163594191e+002	(1.12069676312407e-001dB,7.51782211451481e+000°)
6.62190208765721e+002	(1.13114622570419e-001dB,7.55053234839887e+000°)
6.65120253937251e+002	(1.14163986220921e-001dB,7.58323342175530e+000°)
6.68050299108780e+002	(1.15217764488537e-001dB,7.61592529800712e+000°)
6.70980344280310e+002	(1.16275954584494e-001dB,7.64860794062676e+000°)
6.73910389451840e+002	(1.17338553713878e-001dB,7.68128131313648e+000°)
6.76840434623370e+002	(1.18405559065128e-001dB,7.71394537910897e+000°)
6.79770479794899e+002	(1.19476967826443e-001dB,7.74660010216634e+000°)
6.82700524966429e+002	(1.20552777164393e-001dB,7.77924544598207e+000°)
6.85630570137959e+002	(1.21632984243738e-001dB,7.81188137427939e+000°)
6.88560615309489e+002	(1.22717586215938e-001dB,7.84450785083276e+000°)
6.91490660481018e+002	(1.23806580225698e-001dB,7.87712483946679e+000°)
6.94420705652548e+002	(1.24899963403662e-001dB,7.90973230405789e+000°)
6.97350750824078e+002	(1.25997732872162e-001dB,7.94233020853285e+000°)
7.00280795995607e+002	(1.27099885742788e-001dB,7.97491851687039e+000°)
7.03210841167137e+002	(1.28206419120505e-001dB,8.00749719310036e+000°)
7.06140886338667e+002	(1.29317330093828e-001dB,8.04006620130457e+000°)
7.09070931510197e+002	(1.30432615750499e-001dB,8.07262550561596e+000°)
7.12000976681726e+002	(1.31552273157718e-001dB,8.10517507022029e+000°)
7.14931021853256e+002	(1.32676299384399e-001dB,8.13771485935450e+000°)
7.17861067024786e+002	(1.33804691480692e-001dB,8.17024483730839e+000°)
7.20791112196316e+002	(1.34937446493533e-001dB,8.20276496842370e+000°)
7.23721157367845e+002	(1.36074561450303e-001dB,8.23527521709544e+000°)
7.26651202539375e+002	(1.37216033383471e-001dB,8.26777554777025e+000°)
7.29581247710905e+002	(1.38361859299435e-001dB,8.30026592494882e+000°)
7.32511292882435e+002	(1.39512036208921e-001dB,8.33274631318347e+000°)
7.35441338053964e+002	(1.40666561107289e-001dB,8.36521667708070e+000°)
7.38371383225494e+002	(1.41825430977023e-001dB,8.39767698129981e+000°)
7.41301428397024e+002	(1.42988642796028e-001dB,8.43012719055402e+000°)
7.44231473568554e+002	(1.44156193532611e-001dB,8.46256726960929e+000°)
7.47161518740083e+002	(1.45328080139909e-001dB,8.49499718328607e+000°)
7.50091563911613e+002	(1.46504299569740e-001dB,8.52741689645822e+000°)
7.53021609083143e+002	(1.47684848758735e-001dB,8.55982637405392e+000°)
7.55951654254673e+002	(1.48869724634984e-001dB,8.59222558105507e+000°)
7.58881699426202e+002	(1.50058924118768e-001dB,8.62461448249853e+000°)
7.61811744597732e+002	(1.51252444121021e-001dB,8.65699304347476e+000°)
7.64741789769262e+002	(1.52450281542567e-001dB,8.68936122912932e+000°)
7.67671834940792e+002	(1.53652433272362e-001dB,8.72171900466269e+000°)
7.70601880112321e+002	(1.54858896193470e-001dB,8.75406633532958e+000°)
7.73531925283851e+002	(1.56069667182111e-001dB,8.78640318644006e+000°)
7.76461970455381e+002	(1.57284743097048e-001dB,8.81872952335950e+000°)
7.79392015626911e+002	(1.58504120797767e-001dB,8.85104531150789e+000°)
7.82322060798440e+002	(1.59727797125509e-001dB,8.88335051636157e+000°)
7.85252105969970e+002	(1.60955768918134e-001dB,8.91564510345154e+000°)
7.88182151141500e+002	(1.62188033003552e-001dB,8.94792903836484e+000°)
7.91112196313029e+002	(1.63424586198141e-001dB,8.98020228674450e+000°)
7.94042241484559e+002	(1.64665425311681e-001dB,9.01246481428917e+000°)
7.96972286656089e+002	(1.65910547145724e-001dB,9.04471658675371e+000°)
7.99902331827619e+002	(1.67159948487948e-001dB,9.07695756994925e+000°)
8.02832376999148e+002	(1.68413626121096e-001dB,9.10918772974323e+000°)
8.05762422170678e+002	(1.69671576822305e-001dB,9.14140703205919e+000°)
8.08692467342208e+002	(1.70933797349067e-001dB,9.17361544287815e+000°)
8.11622512513738e+002	(1.72200284462357e-001dB,9.20581292823690e+000°)
8.14552557685267e+002	(1.73471034902766e-001dB,9.23799945422983e+000°)
8.17482602856797e+002	(1.74746045414372e-001dB,9.27017498700765e+000°)
8.20412648028327e+002	(1.76025312721780e-001dB,9.30233949277875e+000°)
