Freq.	V(out)*15.4882
5.86009034305946e+000	(-6.60723332221039e-003dB,6.75330391412429e-002°)
1.17201806861189e+001	(-6.57876809155459e-003dB,1.35065737693842e-001°)
1.75802710291784e+001	(-6.53132639783433e-003dB,2.02597755044636e-001°)
2.34403613722378e+001	(-6.46490877501238e-003dB,2.70128750601861e-001°)
2.93004517152973e+001	(-6.37951596817320e-003dB,3.37658383824792e-001°)
3.51605420583567e+001	(-6.27514894088291e-003dB,4.05186314181640e-001°)
4.10206324014162e+001	(-6.15180886603166e-003dB,4.72712201186630e-001°)
4.68807227444756e+001	(-6.00949713496562e-003dB,5.40235704407338e-001°)
5.27408130875351e+001	(-5.84821534331000e-003dB,6.07756483459735e-001°)
5.86009034305945e+001	(-5.66796531158165e-003dB,6.75274198026422e-001°)
6.44609937736540e+001	(-5.46874906362288e-003dB,7.42788507859075e-001°)
7.03210841167135e+001	(-5.25056884391450e-003dB,8.10299072793952e-001°)
7.61811744597729e+001	(-5.01342710422162e-003dB,8.77805552751656e-001°)
8.20412648028324e+001	(-4.75732651339532e-003dB,9.45307607748867e-001°)
8.79013551458918e+001	(-4.48226994909875e-003dB,1.01280489790625e+000°)
9.37614454889513e+001	(-4.18826050827025e-003dB,1.08029708345443e+000°)
9.96215358320107e+001	(-3.87530149148301e-003dB,1.14778382474588e+000°)
1.05481626175070e+002	(-3.54339642084773e-003dB,1.21526478225862e+000°)
1.11341716518130e+002	(-3.19254902259926e-003dB,1.28273961660801e+000°)
1.17201806861189e+002	(-2.82276324670858e-003dB,1.35020798854944e+000°)
1.23061897204249e+002	(-2.43404323793013e-003dB,1.41766955899107e+000°)
1.28921987547308e+002	(-2.02639337016266e-003dB,1.48512398899933e+000°)
1.34782077890367e+002	(-1.59981821833843e-003dB,1.55257093980855e+000°)
1.40642168233427e+002	(-1.15432257301614e-003dB,1.62001007282697e+000°)
1.46502258576486e+002	(-6.89911436929571e-004dB,1.68744104964425e+000°)
1.52362348919546e+002	(-2.06590017317552e-004dB,1.75486353204242e+000°)
1.58222439262605e+002	(2.95636258550094e-004dB,1.82227718200037e+000°)
1.64082529605665e+002	(8.16761756028636e-004dB,1.88968166170326e+000°)
1.69942619948724e+002	(1.35678063326088e-003dB,1.95707663354992e+000°)
1.75802710291784e+002	(1.91568683320210e-003dB,2.02446176016154e+000°)
1.81662800634843e+002	(2.49347409458555e-003dB,2.09183670438751e+000°)
1.87522890977903e+002	(3.09013594143289e-003dB,2.15920112931465e+000°)
1.93382981320962e+002	(3.70566568993247e-003dB,2.22655469827565e+000°)
1.99243071664021e+002	(4.34005644785637e-003dB,2.29389707485499e+000°)
2.05103162007081e+002	(4.99330111075058e-003dB,2.36122792289691e+000°)
2.10963252350140e+002	(5.66539237121563e-003dB,2.42854690651572e+000°)
2.16823342693200e+002	(6.35632270692704e-003dB,2.49585369009891e+000°)
2.22683433036259e+002	(7.06608439077443e-003dB,2.56314793831980e+000°)
2.28543523379319e+002	(7.79466949363071e-003dB,2.63042931614070e+000°)
2.34403613722378e+002	(8.54206986739722e-003dB,2.69769748882452e+000°)
2.40263704065438e+002	(9.30827716423462e-003dB,2.76495212193945e+000°)
2.46123794408497e+002	(1.00932828279065e-002dB,2.83219288136759e+000°)
2.51983884751557e+002	(1.08970780940510e-002dB,2.89941943331294e+000°)
2.57843975094616e+002	(1.17196539971264e-002dB,2.96663144430859e+000°)
2.63704065437676e+002	(1.25610013609243e-002dB,3.03382858122443e+000°)
2.69564155780735e+002	(1.34211108046701e-002dB,3.10101051127392e+000°)
2.75424246123794e+002	(1.42999727441990e-002dB,3.16817690202325e+000°)
2.81284336466854e+002	(1.51975773924252e-002dB,3.23532742139616e+000°)
2.87144426809913e+002	(1.61139147497196e-002dB,3.30246173768450e+000°)
2.93004517152973e+002	(1.70489746233223e-002dB,3.36957951955409e+000°)
2.98864607496032e+002	(1.80027466096360e-002dB,3.43668043605139e+000°)
3.04724697839092e+002	(1.89752201061542e-002dB,3.50376415661219e+000°)
3.10584788182151e+002	(1.99663843060683e-002dB,3.57083035106921e+000°)
3.16444878525211e+002	(2.09762281979556e-002dB,3.63787868965770e+000°)
3.22304968868270e+002	(2.20047405735444e-002dB,3.70490884302451e+000°)
3.28165059211330e+002	(2.30519100191873e-002dB,3.77192048223435e+000°)
3.34025149554389e+002	(2.41177249219777e-002dB,3.83891327877802e+000°)
3.39885239897449e+002	(2.52021734702540e-002dB,3.90588690457843e+000°)
3.45745330240508e+002	(2.63052436516030e-002dB,3.97284103199938e+000°)
3.51605420583568e+002	(2.74269232500433e-002dB,4.03977533385063e+000°)
3.57465510926627e+002	(2.85671998563628e-002dB,4.10668948339732e+000°)
3.63325601269687e+002	(2.97260608603421e-002dB,4.17358315436610e+000°)
3.69185691612746e+002	(3.09034934505103e-002dB,4.24045602095180e+000°)
3.75045781955806e+002	(3.20994846252981e-002dB,4.30730775782489e+000°)
3.80905872298865e+002	(3.33140211803293e-002dB,4.37413804013916e+000°)
3.86765962641925e+002	(3.45470897140036e-002dB,4.44094654353823e+000°)
3.92626052984984e+002	(3.57986766369201e-002dB,4.50773294416195e+000°)
3.98486143328044e+002	(3.70687681544047e-002dB,4.57449691865472e+000°)
4.04346233671103e+002	(3.83573502810609e-002dB,4.64123814417126e+000°)
4.10206324014163e+002	(3.96644088378761e-002dB,4.70795629838432e+000°)
4.16066414357222e+002	(4.09899294512882e-002dB,4.77465105949084e+000°)
4.21926504700282e+002	(4.23338975553096e-002dB,4.84132210621936e+000°)
4.27786595043341e+002	(4.36962983880179e-002dB,4.90796911783681e+000°)
4.33646685386401e+002	(4.50771170010945e-002dB,4.97459177415520e+000°)
4.39506775729460e+002	(4.64763382489936e-002dB,5.04118975553846e+000°)
4.45366866072519e+002	(4.78939468001858e-002dB,5.10776274290850e+000°)
4.51226956415579e+002	(4.93299271278227e-002dB,5.17431041775319e+000°)
4.57087046758638e+002	(5.07842635178064e-002dB,5.24083246213230e+000°)
4.62947137101698e+002	(5.22569400685677e-002dB,5.30732855868354e+000°)
4.68807227444757e+002	(5.37479406850749e-002dB,5.37379839063042e+000°)
4.74667317787817e+002	(5.52572490934280e-002dB,5.44024164178761e+000°)
4.80527408130876e+002	(5.67848488217709e-002dB,5.50665799656914e+000°)
4.86387498473936e+002	(5.83307232181914e-002dB,5.57304713999256e+000°)
4.92247588816995e+002	(5.98948554431279e-002dB,5.63940875768718e+000°)
4.98107679160055e+002	(6.14772284732678e-002dB,5.70574253590021e+000°)
5.03967769503114e+002	(6.30778250948852e-002dB,5.77204816150249e+000°)
5.09827859846174e+002	(6.46966279184127e-002dB,5.83832532199543e+000°)
5.15687950189233e+002	(6.63336193642999e-002dB,5.90457370551766e+000°)
5.21548040532293e+002	(6.79887816743915e-002dB,5.97079300084993e+000°)
5.27408130875352e+002	(6.96620969043989e-002dB,6.03698289742310e+000°)
5.33268221218412e+002	(7.13535469343989e-002dB,6.10314308532296e+000°)
5.39128311561471e+002	(7.30631134572576e-002dB,6.16927325529745e+000°)
5.44988401904531e+002	(7.47907779932154e-002dB,6.23537309876160e+000°)
5.50848492247590e+002	(7.65365218750685e-002dB,6.30144230780543e+000°)
5.56708582590650e+002	(7.83003262627112e-002dB,6.36748057519794e+000°)
5.62568672933709e+002	(8.00821721366128e-002dB,6.43348759439471e+000°)
5.68428763276769e+002	(8.18820402992504e-002dB,6.49946305954296e+000°)
5.74288853619828e+002	(8.36999113799091e-002dB,6.56540666548807e+000°)
5.80148943962888e+002	(8.55357658265045e-002dB,6.63131810777925e+000°)
5.86009034305947e+002	(8.73895839201769e-002dB,6.69719708267500e+000°)
5.91869124649006e+002	(8.92613457555017e-002dB,6.76304328715018e+000°)
5.97729214992066e+002	(9.11510312675331e-002dB,6.82885641890047e+000°)
6.03589305335125e+002	(9.30586202087917e-002dB,6.89463617634846e+000°)
6.09449395678185e+002	(9.49840921638783e-002dB,6.96038225865004e+000°)
6.15309486021244e+002	(9.69274265453742e-002dB,7.02609436569898e+000°)
6.21169576364304e+002	(9.88886025962614e-002dB,7.09177219813348e+000°)
6.27029666707363e+002	(1.00867599387313e-001dB,7.15741545734146e+000°)
6.32889757050423e+002	(1.02864395822130e-001dB,7.22302384546613e+000°)
6.38749847393482e+002	(1.04878970638576e-001dB,7.28859706541099e+000°)
6.44609937736542e+002	(1.06911302403126e-001dB,7.35413482084602e+000°)
6.50470028079601e+002	(1.08961369515663e-001dB,7.41963681621306e+000°)
6.56330118422661e+002	(1.11029150214467e-001dB,7.48510275673039e+000°)
6.62190208765720e+002	(1.13114622570423e-001dB,7.55053234839877e+000°)
6.68050299108780e+002	(1.15217764488537e-001dB,7.61592529800712e+000°)
6.73910389451839e+002	(1.17338553713878e-001dB,7.68128131313647e+000°)
6.79770479794899e+002	(1.19476967826437e-001dB,7.74660010216642e+000°)
6.85630570137958e+002	(1.21632984243738e-001dB,7.81188137427938e+000°)
6.91490660481018e+002	(1.23806580225694e-001dB,7.87712483946683e+000°)
6.97350750824077e+002	(1.25997732872162e-001dB,7.94233020853285e+000°)
7.03210841167137e+002	(1.28206419120505e-001dB,8.00749719310035e+000°)
7.09070931510196e+002	(1.30432615750499e-001dB,8.07262550561595e+000°)
7.14931021853256e+002	(1.32676299384397e-001dB,8.13771485935454e+000°)
7.20791112196315e+002	(1.34937446493529e-001dB,8.20276496842378e+000°)
7.26651202539375e+002	(1.37216033383471e-001dB,8.26777554777025e+000°)
7.32511292882434e+002	(1.39512036208919e-001dB,8.33274631318351e+000°)
7.38371383225494e+002	(1.41825430977025e-001dB,8.39767698129989e+000°)
7.44231473568553e+002	(1.44156193532611e-001dB,8.46256726960929e+000°)
7.50091563911613e+002	(1.46504299569740e-001dB,8.52741689645821e+000°)
7.55951654254672e+002	(1.48869724634984e-001dB,8.59222558105506e+000°)
7.61811744597731e+002	(1.51252444121026e-001dB,8.65699304347467e+000°)
7.67671834940791e+002	(1.53652433272362e-001dB,8.72171900466269e+000°)
7.73531925283850e+002	(1.56069667182111e-001dB,8.78640318644006e+000°)
7.79392015626910e+002	(1.58504120797765e-001dB,8.85104531150792e+000°)
7.85252105969969e+002	(1.60955768918134e-001dB,8.91564510345153e+000°)
7.91112196313029e+002	(1.63424586198141e-001dB,8.98020228674450e+000°)
7.96972286656088e+002	(1.65910547145723e-001dB,9.04471658675370e+000°)
8.02832376999148e+002	(1.68413626121096e-001dB,9.10918772974322e+000°)
8.08692467342207e+002	(1.70933797349063e-001dB,9.17361544287820e+000°)
8.14552557685267e+002	(1.73471034902760e-001dB,9.23799945422991e+000°)
8.20412648028326e+002	(1.76025312721780e-001dB,9.30233949277875e+000°)
8.26272738371386e+002	(1.78596604596631e-001dB,9.36663528841950e+000°)
8.32132828714445e+002	(1.81184884182802e-001dB,9.43088657196455e+000°)
8.37992919057505e+002	(1.83790124997607e-001dB,9.49509307514801e+000°)
8.43853009400564e+002	(1.86412300416121e-001dB,9.55925453063004e+000°)
8.49713099743624e+002	(1.89051383682831e-001dB,9.62337067199984e+000°)
8.55573190086683e+002	(1.91707347899353e-001dB,9.68744123378096e+000°)
8.61433280429743e+002	(1.94380166031979e-001dB,9.75146595143405e+000°)
8.67293370772802e+002	(1.97069810919197e-001dB,9.81544456136027e+000°)
8.73153461115862e+002	(1.99776255261032e-001dB,9.87937680090584e+000°)
8.79013551458921e+002	(2.02499471624180e-001dB,9.94326240836596e+000°)
8.84873641801981e+002	(2.05239432444540e-001dB,1.00071011229872e+001°)
8.90733732145040e+002	(2.07996110033119e-001dB,1.00708926849719e+001°)
8.96593822488100e+002	(2.10769476559653e-001dB,1.01346368354819e+001°)
9.02453912831159e+002	(2.13559504077400e-001dB,1.01983333166410e+001°)
9.08314003174219e+002	(2.16366164502004e-001dB,1.02619818715398e+001°)
9.14174093517278e+002	(2.19189429628715e-001dB,1.03255822442373e+001°)
9.20034183860338e+002	(2.22029271122730e-001dB,1.03891341797664e+001°)
9.25894274203397e+002	(2.24885660527596e-001dB,1.04526374241349e+001°)
9.31754364546456e+002	(2.27758569260290e-001dB,1.05160917243305e+001°)
9.37614454889516e+002	(2.30647968617238e-001dB,1.05794968283231e+001°)
9.43474545232575e+002	(2.33553829765277e-001dB,1.06428524850687e+001°)
9.49334635575635e+002	(2.36476123761631e-001dB,1.07061584445108e+001°)
9.55194725918694e+002	(2.39414821538331e-001dB,1.07694144575855e+001°)
9.61054816261754e+002	(2.42369893901629e-001dB,1.08326202762237e+001°)
9.66914906604813e+002	(2.45341311550197e-001dB,1.08957756533529e+001°)
9.72774996947873e+002	(2.48329045059559e-001dB,1.09588803429023e+001°)
9.78635087290932e+002	(2.51333064886504e-001dB,1.10219340998041e+001°)
9.84495177633992e+002	(2.54353341378961e-001dB,1.10849366799963e+001°)
9.90355267977051e+002	(2.57389844767988e-001dB,1.11478878404262e+001°)
9.96215358320111e+002	(2.60442545167913e-001dB,1.12107873390528e+001°)
1.00207544866317e+003	(2.63511412584708e-001dB,1.12736349348493e+001°)
1.00793553900623e+003	(2.66596416909546e-001dB,1.13364303878060e+001°)
1.01379562934929e+003	(2.69697527923085e-001dB,1.13991734589327e+001°)
1.01965571969235e+003	(2.72814715302978e-001dB,1.14618639102606e+001°)
1.02551581003541e+003	(2.75947948610942e-001dB,1.15245015048463e+001°)
1.03137590037847e+003	(2.79097197303520e-001dB,1.15870860067729e+001°)
1.03723599072153e+003	(2.82262430729835e-001dB,1.16496171811528e+001°)
1.04309608106459e+003	(2.85443618135819e-001dB,1.17120947941300e+001°)
1.04895617140765e+003	(2.88640728660294e-001dB,1.17745186128825e+001°)
1.05481626175071e+003	(2.91853731337536e-001dB,1.18368884056247e+001°)
1.06067635209377e+003	(2.95082595104904e-001dB,1.18992039416087e+001°)
1.06653644243682e+003	(2.98327288791408e-001dB,1.19614649911278e+001°)
1.07239653277988e+003	(3.01587781124548e-001dB,1.20236713255179e+001°)
1.07825662312294e+003	(3.04864040741877e-001dB,1.20858227171583e+001°)
1.08411671346600e+003	(3.08156036170668e-001dB,1.21479189394768e+001°)
1.08997680380906e+003	(3.11463735847011e-001dB,1.22099597669483e+001°)
1.09583689415212e+003	(3.14787108109305e-001dB,1.22719449750988e+001°)
1.10169698449518e+003	(3.18126121196816e-001dB,1.23338743405071e+001°)
1.10755707483824e+003	(3.21480743261414e-001dB,1.23957476408049e+001°)
1.11341716518130e+003	(3.24850942350378e-001dB,1.24575646546816e+001°)
1.11927725552436e+003	(3.28236686425469e-001dB,1.25193251618830e+001°)
1.12513734586742e+003	(3.31637943357442e-001dB,1.25810289432144e+001°)
1.13099743621048e+003	(3.35054680921124e-001dB,1.26426757805426e+001°)
1.13685752655354e+003	(3.38486866805546e-001dB,1.27042654567966e+001°)
1.14271761689660e+003	(3.41934468608313e-001dB,1.27657977559698e+001°)
1.14857770723966e+003	(3.45397453839063e-001dB,1.28272724631210e+001°)
1.15443779758272e+003	(3.48875789922047e-001dB,1.28886893643761e+001°)
1.16029788792578e+003	(3.52369444196369e-001dB,1.29500482469294e+001°)
1.16615797826884e+003	(3.55878383909508e-001dB,1.30113488990457e+001°)
1.17201806861190e+003	(3.59402576236423e-001dB,1.30725911100594e+001°)
1.17787815895495e+003	(3.62941988257443e-001dB,1.31337746703790e+001°)
1.18373824929801e+003	(3.66496586978254e-001dB,1.31948993714859e+001°)
1.18959833964107e+003	(3.70066339320106e-001dB,1.32559650059362e+001°)
1.19545842998413e+003	(3.73651212125794e-001dB,1.33169713673621e+001°)
1.20131852032719e+003	(3.77251172154802e-001dB,1.33779182504733e+001°)
1.20717861067025e+003	(3.80866186095072e-001dB,1.34388054510567e+001°)
1.21303870101331e+003	(3.84496220552335e-001dB,1.34996327659790e+001°)
1.21889879135637e+003	(3.88141242060249e-001dB,1.35603999931864e+001°)
1.22475888169943e+003	(3.91801217073093e-001dB,1.36211069317066e+001°)
1.23061897204249e+003	(3.95476111971705e-001dB,1.36817533816488e+001°)
1.23647906238555e+003	(3.99165893064386e-001dB,1.37423391442053e+001°)
1.24233915272861e+003	(4.02870526590424e-001dB,1.38028640216508e+001°)
1.24819924307167e+003	(4.06589978710345e-001dB,1.38633278173456e+001°)
1.25405933341473e+003	(4.10324215519983e-001dB,1.39237303357338e+001°)
1.25991942375779e+003	(4.14073203044957e-001dB,1.39840713823453e+001°)
1.26577951410085e+003	(4.17836907240757e-001dB,1.40443507637964e+001°)
1.27163960444391e+003	(4.21615293993703e-001dB,1.41045682877903e+001°)
1.27749969478697e+003	(4.25408329131029e-001dB,1.41647237631164e+001°)
1.28335978513003e+003	(4.29215978406115e-001dB,1.42248169996529e+001°)
1.28921987547308e+003	(4.33038207511847e-001dB,1.42848478083656e+001°)
1.29507996581614e+003	(4.36874982077467e-001dB,1.43448160013090e+001°)
1.30094005615920e+003	(4.40726267667842e-001dB,1.44047213916265e+001°)
1.30680014650226e+003	(4.44592029785285e-001dB,1.44645637935511e+001°)
1.31266023684532e+003	(4.48472233876266e-001dB,1.45243430224045e+001°)
1.31852032718838e+003	(4.52366845320808e-001dB,1.45840588945989e+001°)
1.32438041753144e+003	(4.56275829447470e-001dB,1.46437112276356e+001°)
1.33024050787450e+003	(4.60199151518608e-001dB,1.47032998401072e+001°)
1.33610059821756e+003	(4.64136776745385e-001dB,1.47628245516953e+001°)
1.34196068856062e+003	(4.68088670281241e-001dB,1.48222851831725e+001°)
1.34782077890368e+003	(4.72054797223693e-001dB,1.48816815564013e+001°)
1.35368086924674e+003	(4.76035122619395e-001dB,1.49410134943345e+001°)
1.35954095958980e+003	(4.80029611457676e-001dB,1.50002808210152e+001°)
1.36540104993286e+003	(4.84038228677168e-001dB,1.50594833615768e+001°)
1.37126114027592e+003	(4.88060939163551e-001dB,1.51186209422427e+001°)
1.37712123061898e+003	(4.92097707756190e-001dB,1.51776933903258e+001°)
1.38298132096204e+003	(4.96148499242478e-001dB,1.52367005342288e+001°)
1.38884141130510e+003	(5.00213278357991e-001dB,1.52956422034442e+001°)
1.39470150164816e+003	(5.04292009798865e-001dB,1.53545182285525e+001°)
1.40056159199122e+003	(5.08384658205475e-001dB,1.54133284412243e+001°)
1.40642168233427e+003	(5.12491188179849e-001dB,1.54720726742175e+001°)
1.41228177267733e+003	(5.16611564274181e-001dB,1.55307507613788e+001°)
1.41814186302039e+003	(5.20745750997541e-001dB,1.55893625376423e+001°)
1.42400195336345e+003	(5.24893712816788e-001dB,1.56479078390289e+001°)
1.42986204370651e+003	(5.29055414159121e-001dB,1.57063865026461e+001°)
1.43572213404957e+003	(5.33230819405616e-001dB,1.57647983666878e+001°)
1.44158222439263e+003	(5.37419892901125e-001dB,1.58231432704330e+001°)
1.44744231473569e+003	(5.41622598946157e-001dB,1.58814210542461e+001°)
1.45330240507875e+003	(5.45838901810968e-001dB,1.59396315595745e+001°)
1.45916249542181e+003	(5.50068765719984e-001dB,1.59977746289503e+001°)
1.46502258576487e+003	(5.54312154864214e-001dB,1.60558501059878e+001°)
1.47088267610793e+003	(5.58569033400507e-001dB,1.61138578353830e+001°)
1.47674276645099e+003	(5.62839365449143e-001dB,1.61717976629135e+001°)
1.48260285679405e+003	(5.67123115094723e-001dB,1.62296694354371e+001°)
1.48846294713711e+003	(5.71420246390345e-001dB,1.62874730008914e+001°)
1.49432303748017e+003	(5.75730723359330e-001dB,1.63452082082915e+001°)
1.50018312782323e+003	(5.80054509988681e-001dB,1.64028749077313e+001°)
1.50604321816629e+003	(5.84391570238167e-001dB,1.64604729503806e+001°)
1.51190330850935e+003	(5.88741868037106e-001dB,1.65180021884852e+001°)
1.51776339885240e+003	(5.93105367286097e-001dB,1.65754624753651e+001°)
1.52362348919546e+003	(5.97482031857785e-001dB,1.66328536654140e+001°)
1.52948357953852e+003	(6.01871825597823e-001dB,1.66901756140981e+001°)
1.53534366988158e+003	(6.06274712325726e-001dB,1.67474281779546e+001°)
1.54120376022464e+003	(6.10690655834816e-001dB,1.68046112145910e+001°)
1.54706385056770e+003	(6.15119619896504e-001dB,1.68617245826832e+001°)
1.55292394091076e+003	(6.19561568257719e-001dB,1.69187681419747e+001°)
1.55878403125382e+003	(6.24016464636916e-001dB,1.69757417532768e+001°)
1.56464412159688e+003	(6.28484272742179e-001dB,1.70326452784631e+001°)
1.57050421193994e+003	(6.32964956246534e-001dB,1.70894785804739e+001°)
1.57636430228300e+003	(6.37458478818389e-001dB,1.71462415233088e+001°)
1.58222439262606e+003	(6.41964804092847e-001dB,1.72029339720308e+001°)
1.58808448296912e+003	(6.46483895693818e-001dB,1.72595557927612e+001°)
1.59394457331218e+003	(6.51015717225064e-001dB,1.73161068526794e+001°)
1.59980466365524e+003	(6.55560232277525e-001dB,1.73725870200211e+001°)
1.60566475399830e+003	(6.60117404417870e-001dB,1.74289961640780e+001°)
1.61152484434136e+003	(6.64687197203290e-001dB,1.74853341551943e+001°)
1.61738493468442e+003	(6.69269574181452e-001dB,1.75416008647655e+001°)
1.62324502502748e+003	(6.73864498874083e-001dB,1.75977961652392e+001°)
1.62910511537053e+003	(6.78471934799968e-001dB,1.76539199301098e+001°)
1.63496520571359e+003	(6.83091845460966e-001dB,1.77099720339198e+001°)
1.64082529605665e+003	(6.87724194350157e-001dB,1.77659523522562e+001°)
1.64668538639971e+003	(6.92368944951914e-001dB,1.78218607617496e+001°)
