Freq.	V(out)*15.4882
5.86009034305946e+000	(-6.64068571978811e-003dB,-1.22153513180762e-001°)
1.17201806861189e+001	(-6.71257728714666e-003dB,-2.44305521353520e-001°)
1.75802710291784e+001	(-6.83239344237982e-003dB,-3.66454519664267e-001°)
2.34403613722378e+001	(-7.00013049920534e-003dB,-4.88599003424090e-001°)
2.93004517152973e+001	(-7.21578271386013e-003dB,-6.10737468247617e-001°)
3.51605420583567e+001	(-7.47934302178765e-003dB,-7.32868410141487e-001°)
4.10206324014162e+001	(-7.79080218413472e-003dB,-8.54990325651990e-001°)
4.68807227444756e+001	(-8.15014991904082e-003dB,-9.77101711891235e-001°)
5.27408130875351e+001	(-8.55737403538687e-003dB,-1.09920106669901e+000°)
5.86009034305945e+001	(-9.01246110430681e-003dB,-1.22128688866826e+000°)
6.44609937736540e+001	(-9.51539521257495e-003dB,-1.34335767741810e+000°)
7.03210841167135e+001	(-1.00661597247967e-002dB,-1.46541193345067e+000°)
7.61811744597729e+001	(-1.06647361817216e-002dB,-1.58744815839992e+000°)
8.20412648028324e+001	(-1.13111045386582e-002dB,-1.70946485509004e+000°)
8.79013551458918e+001	(-1.20052427476453e-002dB,-1.83146052773006e+000°)
9.37614454889513e+001	(-1.27471274427403e-002dB,-1.95343368188138e+000°)
9.96215358320107e+001	(-1.35367339292889e-002dB,-2.07538282454561e+000°)
1.05481626175070e+002	(-1.43740354647209e-002dB,-2.19730646442233e+000°)
1.11341716518130e+002	(-1.52590040753327e-002dB,-2.31920311182645e+000°)
1.17201806861189e+002	(-1.61916099818722e-002dB,-2.44107127891901e+000°)
1.23061897204249e+002	(-1.71718217473426e-002dB,-2.56290947978238e+000°)
1.28921987547308e+002	(-1.81996066869986e-002dB,-2.68471623039247e+000°)
1.34782077890367e+002	(-1.92749302292479e-002dB,-2.80649004890397e+000°)
1.40642168233427e+002	(-2.03977564178664e-002dB,-2.92822945559746e+000°)
1.46502258576486e+002	(-2.15680476405800e-002dB,-3.04993297306541e+000°)
1.52362348919546e+002	(-2.27857644498799e-002dB,-3.17159912637147e+000°)
1.58222439262605e+002	(-2.40508666154554e-002dB,-3.29322644277801e+000°)
1.64082529605665e+002	(-2.53633113862222e-002dB,-3.41481345246505e+000°)
1.69942619948724e+002	(-2.67230551979526e-002dB,-3.53635868800268e+000°)
1.75802710291784e+002	(-2.81300525908687e-002dB,-3.65786068484949e+000°)
1.81662800634843e+002	(-2.95842563983471e-002dB,-3.77931798139307e+000°)
1.87522890977903e+002	(-3.10856185107358e-002dB,-3.90072911871257e+000°)
1.93382981320962e+002	(-3.26340889123288e-002dB,-4.02209264107937e+000°)
1.99243071664021e+002	(-3.42296159618772e-002dB,-4.14340709594482e+000°)
2.05103162007081e+002	(-3.58721465551386e-002dB,-4.26467103396232e+000°)
2.10963252350140e+002	(-3.75616261827649e-002dB,-4.38588300904709e+000°)
2.16823342693200e+002	(-3.92979987402824e-002dB,-4.50704157856333e+000°)
2.22683433036259e+002	(-4.10812067561005e-002dB,-4.62814530329948e+000°)
2.28543523379319e+002	(-4.29111909279758e-002dB,-4.74919274780934e+000°)
2.34403613722378e+002	(-4.47878912252998e-002dB,-4.87018247990514e+000°)
2.40263704065438e+002	(-4.67112450563558e-002dB,-4.99111307175652e+000°)
2.46123794408497e+002	(-4.86811891272322e-002dB,-5.11198309895697e+000°)
2.51983884751557e+002	(-5.06976583792148e-002dB,-5.23279114120573e+000°)
2.57843975094616e+002	(-5.27605863348290e-002dB,-5.35353578220549e+000°)
2.63704065437676e+002	(-5.48699053130653e-002dB,-5.47421560961253e+000°)
2.69564155780735e+002	(-5.70255456817547e-002dB,-5.59482921559357e+000°)
2.75424246123794e+002	(-5.92274368931149e-002dB,-5.71537519626650e+000°)
2.81284336466854e+002	(-6.14755065155797e-002dB,-5.83585215240628e+000°)
2.87144426809913e+002	(-6.37696809308540e-002dB,-5.95625868908393e+000°)
2.93004517152973e+002	(-6.61098850945963e-002dB,-6.07659341590814e+000°)
2.98864607496032e+002	(-6.84960424665102e-002dB,-6.19685494716263e+000°)
3.04724697839092e+002	(-7.09280752650684e-002dB,-6.31704190171288e+000°)
3.10584788182151e+002	(-7.34059039309635e-002dB,-6.43715290348137e+000°)
3.16444878525211e+002	(-7.59294481080775e-002dB,-6.55718658081779e+000°)
3.22304968868270e+002	(-7.84986257958640e-002dB,-6.67714156719637e+000°)
3.28165059211330e+002	(-8.11133533068836e-002dB,-6.79701650135402e+000°)
3.34025149554389e+002	(-8.37735458455487e-002dB,-6.91681002693376e+000°)
3.39885239897449e+002	(-8.64791177877225e-002dB,-7.03652079232422e+000°)
3.45745330240508e+002	(-8.92299810991889e-002dB,-7.15614745201449e+000°)
3.51605420583568e+002	(-9.20260471941820e-002dB,-7.27568866518867e+000°)
3.57465510926627e+002	(-9.48672258067571e-002dB,-7.39514309671749e+000°)
3.63325601269687e+002	(-9.77534258910659e-002dB,-7.51450941648333e+000°)
3.69185691612746e+002	(-1.00684554301691e-001dB,-7.63378630059006e+000°)
3.75045781955806e+002	(-1.03660517183788e-001dB,-7.75297243024968e+000°)
3.80905872298865e+002	(-1.06681219144292e-001dB,-7.87206649257813e+000°)
3.86765962641925e+002	(-1.09746563815596e-001dB,-7.99106718017003e+000°)
3.92626052984984e+002	(-1.12856452848937e-001dB,-8.10997319210103e+000°)
3.98486143328044e+002	(-1.16010787635293e-001dB,-8.22878323241607e+000°)
4.04346233671103e+002	(-1.19209467502012e-001dB,-8.34749601188111e+000°)
4.10206324014163e+002	(-1.22452390983029e-001dB,-8.46611024686985e+000°)
4.16066414357222e+002	(-1.25739455135306e-001dB,-8.58462466008960e+000°)
4.21926504700282e+002	(-1.29070556049737e-001dB,-8.70303798015835e+000°)
4.27786595043341e+002	(-1.32445588476692e-001dB,-8.82134894204543e+000°)
4.33646685386401e+002	(-1.35864445619523e-001dB,-8.93955628736840e+000°)
4.39506775729460e+002	(-1.39327020437682e-001dB,-9.05765876312148e+000°)
4.45366866072519e+002	(-1.42833203776178e-001dB,-9.17565512367498e+000°)
4.51226956415579e+002	(-1.46382885605287e-001dB,-9.29354412957453e+000°)
4.57087046758638e+002	(-1.49975955017634e-001dB,-9.41132454759628e+000°)
4.62947137101698e+002	(-1.53612299919483e-001dB,-9.52899515113918e+000°)
4.68807227444757e+002	(-1.57291806494339e-001dB,-9.64655472089977e+000°)
4.74667317787817e+002	(-1.61014360628899e-001dB,-9.76400204336355e+000°)
4.80527408130876e+002	(-1.64779846344337e-001dB,-9.88133591261915e+000°)
4.86387498473936e+002	(-1.68588147335218e-001dB,-9.99855512868829e+000°)
4.92247588816995e+002	(-1.72439145606675e-001dB,-1.01156584991441e+001°)
4.98107679160055e+002	(-1.76332722325468e-001dB,-1.02326448382045e+001°)
5.03967769503114e+002	(-1.80268757767113e-001dB,-1.03495129668459e+001°)
5.09827859846174e+002	(-1.84247130630198e-001dB,-1.04662617136917e+001°)
5.15687950189233e+002	(-1.88267719011834e-001dB,-1.05828899139096e+001°)
5.21548040532293e+002	(-1.92330400101396e-001dB,-1.06993964096271e+001°)
5.27408130875352e+002	(-1.96435049572768e-001dB,-1.08157800507511e+001°)
5.33268221218412e+002	(-2.00581542734111e-001dB,-1.09320396935992e+001°)
5.39128311561471e+002	(-2.04769753187677e-001dB,-1.10481742026428e+001°)
5.44988401904531e+002	(-2.08999554104638e-001dB,-1.11641824489571e+001°)
5.50848492247590e+002	(-2.13270817529696e-001dB,-1.12800633111571e+001°)
5.56708582590650e+002	(-2.17583414255406e-001dB,-1.13958156756345e+001°)
5.62568672933709e+002	(-2.21937214790377e-001dB,-1.15114384353351e+001°)
5.68428763276769e+002	(-2.26332088150711e-001dB,-1.16269304914111e+001°)
5.74288853619828e+002	(-2.30767902338607e-001dB,-1.17422907526588e+001°)
5.80148943962888e+002	(-2.35244525194495e-001dB,-1.18575181344019e+001°)
5.86009034305947e+002	(-2.39761822940998e-001dB,-1.19726115605302e+001°)
5.91869124649006e+002	(-2.44319661086486e-001dB,-1.20875699623274e+001°)
5.97729214992066e+002	(-2.48917904473941e-001dB,-1.22023922784429e+001°)
6.03589305335125e+002	(-2.53556416880322e-001dB,-1.23170774555073e+001°)
6.09449395678185e+002	(-2.58235061428809e-001dB,-1.24316244475981e+001°)
6.15309486021244e+002	(-2.62953700276272e-001dB,-1.25460322167363e+001°)
6.21169576364304e+002	(-2.67712194514223e-001dB,-1.26602997330930e+001°)
6.27029666707363e+002	(-2.72510405040157e-001dB,-1.27744259737507e+001°)
6.32889757050423e+002	(-2.77348191436617e-001dB,-1.28884099244025e+001°)
6.38749847393482e+002	(-2.82225412556881e-001dB,-1.30022505785428e+001°)
6.44609937736542e+002	(-2.87141927008037e-001dB,-1.31159469367675e+001°)
6.50470028079601e+002	(-2.92097591575769e-001dB,-1.32294980092270e+001°)
6.56330118422661e+002	(-2.97092263604723e-001dB,-1.33429028120204e+001°)
6.62190208765720e+002	(-3.02125798557571e-001dB,-1.34561603710020e+001°)
6.68050299108780e+002	(-3.07198051872562e-001dB,-1.35692697189471e+001°)
6.73910389451839e+002	(-3.12308878146066e-001dB,-1.36822298968587e+001°)
6.79770479794899e+002	(-3.17458130973322e-001dB,-1.37950399542776e+001°)
6.85630570137958e+002	(-3.22645663663659e-001dB,-1.39076989481752e+001°)
6.91490660481018e+002	(-3.27871328390496e-001dB,-1.40202059443669e+001°)
6.97350750824077e+002	(-3.33134977372496e-001dB,-1.41325600156225e+001°)
7.03210841167137e+002	(-3.38436461643522e-001dB,-1.42447602437149e+001°)
7.09070931510196e+002	(-3.43775631459954e-001dB,-1.43568057188090e+001°)
7.14931021853256e+002	(-3.49152336937822e-001dB,-1.44686955384230e+001°)
7.20791112196315e+002	(-3.54566427280284e-001dB,-1.45804288087574e+001°)
7.26651202539375e+002	(-3.60017751121306e-001dB,-1.46920046441578e+001°)
7.32511292882434e+002	(-3.65506156793822e-001dB,-1.48034221666792e+001°)
7.38371383225494e+002	(-3.71031491573114e-001dB,-1.49146805074309e+001°)
7.44231473568553e+002	(-3.76593602616451e-001dB,-1.50257788049779e+001°)
7.50091563911613e+002	(-3.82192336146499e-001dB,-1.51367162068017e+001°)
7.55951654254672e+002	(-3.87827537987692e-001dB,-1.52474918683928e+001°)
7.61811744597731e+002	(-3.93499053492760e-001dB,-1.53581049534055e+001°)
7.67671834940791e+002	(-3.99206727857359e-001dB,-1.54685546331106e+001°)
7.73531925283850e+002	(-4.04950405005322e-001dB,-1.55788400884498e+001°)
7.79392015626910e+002	(-4.10729928982490e-001dB,-1.56889605075358e+001°)
7.85252105969969e+002	(-4.16545143277426e-001dB,-1.57989150869046e+001°)
7.91112196313029e+002	(-4.22395890351954e-001dB,-1.59087030324324e+001°)
7.96972286656088e+002	(-4.28282012992595e-001dB,-1.60183235568404e+001°)
8.02832376999148e+002	(-4.34203353247921e-001dB,-1.61277758816935e+001°)
8.08692467342207e+002	(-4.40159752538420e-001dB,-1.62370592372357e+001°)
8.14552557685267e+002	(-4.46151051945433e-001dB,-1.63461728618678e+001°)
8.20412648028326e+002	(-4.52177092545906e-001dB,-1.64551160015134e+001°)
8.26272738371386e+002	(-4.58237714297426e-001dB,-1.65638879118020e+001°)
8.32132828714445e+002	(-4.64332757583601e-001dB,-1.66724878550868e+001°)
8.37992919057505e+002	(-4.70462061801007e-001dB,-1.67809151032219e+001°)
8.43853009400564e+002	(-4.76625466387602e-001dB,-1.68891689355650e+001°)
8.49713099743624e+002	(-4.82822809998835e-001dB,-1.69972486406307e+001°)
8.55573190086683e+002	(-4.89053931116334e-001dB,-1.71051535149040e+001°)
8.61433280429743e+002	(-4.95318668533142e-001dB,-1.72128828618552e+001°)
8.67293370772802e+002	(-5.01616859796442e-001dB,-1.73204359951182e+001°)
8.73153461115862e+002	(-5.07948342610214e-001dB,-1.74278122356660e+001°)
8.79013551458921e+002	(-5.14312954264275e-001dB,-1.75350109129854e+001°)
8.84873641801981e+002	(-5.20710531941658e-001dB,-1.76420313644561e+001°)
8.90733732145040e+002	(-5.27140912434006e-001dB,-1.77488729359544e+001°)
8.96593822488100e+002	(-5.33603932271412e-001dB,-1.78555349815999e+001°)
9.02453912831159e+002	(-5.40099427968782e-001dB,-1.79620168632418e+001°)
9.08314003174219e+002	(-5.46627235178198e-001dB,-1.80683179522802e+001°)
9.14174093517278e+002	(-5.53187190088028e-001dB,-1.81744376266902e+001°)
9.20034183860338e+002	(-5.59779128433333e-001dB,-1.82803752731384e+001°)
9.25894274203397e+002	(-5.66402885508466e-001dB,-1.83861302869819e+001°)
9.31754364546456e+002	(-5.73058296378129e-001dB,-1.84917020718283e+001°)
9.37614454889516e+002	(-5.79745196366637e-001dB,-1.85970900384621e+001°)
9.43474545232575e+002	(-5.86463420273660e-001dB,-1.87022936065735e+001°)
9.49334635575635e+002	(-5.93212803224778e-001dB,-1.88073122028809e+001°)
9.55194725918694e+002	(-5.99993179447629e-001dB,-1.89121452638694e+001°)
9.61054816261754e+002	(-6.06804383296693e-001dB,-1.90167922335195e+001°)
9.66914906604813e+002	(-6.13646249644095e-001dB,-1.91212525624001e+001°)
9.72774996947873e+002	(-6.20518612243314e-001dB,-1.92255257113949e+001°)
9.78635087290932e+002	(-6.27421305421061e-001dB,-1.93296111478594e+001°)
9.84495177633992e+002	(-6.34354163390850e-001dB,-1.94335083471761e+001°)
9.90355267977051e+002	(-6.41317019917861e-001dB,-1.95372167935438e+001°)
9.96215358320111e+002	(-6.48309708906560e-001dB,-1.96407359786207e+001°)
1.00207544866317e+003	(-6.55332064179572e-001dB,-1.97440654020356e+001°)
1.00793553900623e+003	(-6.62383919751493e-001dB,-1.98472045707381e+001°)
1.01379562934929e+003	(-6.69465108898212e-001dB,-1.99501530012111e+001°)
1.01965571969235e+003	(-6.76575465509240e-001dB,-2.00529102162610e+001°)
1.02551581003541e+003	(-6.83714823590472e-001dB,-2.01554757461776e+001°)
1.03137590037847e+003	(-6.90883016247059e-001dB,-2.02578491311996e+001°)
1.03723599072153e+003	(-6.98079877588647e-001dB,-2.03600299169081e+001°)
1.04309608106459e+003	(-7.05305240924595e-001dB,-2.04620176585981e+001°)
1.04895617140765e+003	(-7.12558940061543e-001dB,-2.05638119181192e+001°)
1.05481626175071e+003	(-7.19840808923939e-001dB,-2.06654122647825e+001°)
1.06067635209377e+003	(-7.27150680895139e-001dB,-2.07668182769991e+001°)
1.06653644243682e+003	(-7.34488389779706e-001dB,-2.08680295398930e+001°)
1.07239653277988e+003	(-7.41853769516401e-001dB,-2.09690456459966e+001°)
1.07825662312294e+003	(-7.49246654107718e-001dB,-2.10698661954172e+001°)
1.08411671346600e+003	(-7.56666877269034e-001dB,-2.11704907967275e+001°)
1.08997680380906e+003	(-7.64114273203482e-001dB,-2.12709190649917e+001°)
1.09583689415212e+003	(-7.71588675811789e-001dB,-2.13711506237706e+001°)
1.10169698449518e+003	(-7.79089919565693e-001dB,-2.14711851028729e+001°)
1.10755707483824e+003	(-7.86617838417751e-001dB,-2.15710221411577e+001°)
1.11341716518130e+003	(-7.94172267298571e-001dB,-2.16706613826427e+001°)
1.11927725552436e+003	(-8.01753040224790e-001dB,-2.17701024814210e+001°)
1.12513734586742e+003	(-8.09359992195079e-001dB,-2.18693450966994e+001°)
1.13099743621048e+003	(-8.16992958059077e-001dB,-2.19683888957409e+001°)
1.13685752655354e+003	(-8.24651772450208e-001dB,-2.20672335540519e+001°)
1.14271761689660e+003	(-8.32336270870312e-001dB,-2.21658787524794e+001°)
1.14857770723966e+003	(-8.40046288387926e-001dB,-2.22643241806673e+001°)
1.15443779758272e+003	(-8.47781660412233e-001dB,-2.23625695349823e+001°)
1.16029788792578e+003	(-8.55542222611390e-001dB,-2.24606145187116e+001°)
1.16615797826884e+003	(-8.63327810853637e-001dB,-2.25584588422061e+001°)
1.17201806861190e+003	(-8.71138261017173e-001dB,-2.26561022233877e+001°)
1.17787815895495e+003	(-8.78973409580231e-001dB,-2.27535443861150e+001°)
1.18373824929801e+003	(-8.86833092465113e-001dB,-2.28507850633545e+001°)
1.18959833964107e+003	(-8.94717146701835e-001dB,-2.29478239925694e+001°)
1.19545842998413e+003	(-9.02625409031745e-001dB,-2.30446609195625e+001°)
1.20131852032719e+003	(-9.10557716321891e-001dB,-2.31412955973262e+001°)
1.20717861067025e+003	(-9.18513906268950e-001dB,-2.32377277840372e+001°)
1.21303870101331e+003	(-9.26493816055239e-001dB,-2.33339572468261e+001°)
1.21889879135637e+003	(-9.34497283705860e-001dB,-2.34299837579285e+001°)
1.22475888169943e+003	(-9.42524147192605e-001dB,-2.35258070972023e+001°)
1.23061897204249e+003	(-9.50574244778157e-001dB,-2.36214270511358e+001°)
1.23647906238555e+003	(-9.58647415432463e-001dB,-2.37168434116212e+001°)
1.24233915272861e+003	(-9.66743497457451e-001dB,-2.38120559799089e+001°)
1.24819924307167e+003	(-9.74862330436340e-001dB,-2.39070645609509e+001°)
1.25405933341473e+003	(-9.83003753729376e-001dB,-2.40018689677328e+001°)
1.25991942375779e+003	(-9.91167607052273e-001dB,-2.40964690195809e+001°)
1.26577951410085e+003	(-9.99353730321550e-001dB,-2.41908645425950e+001°)
1.27163960444391e+003	(-1.00756196404599e+000dB,-2.42850553684696e+001°)
1.27749969478697e+003	(-1.01579214897855e+000dB,-2.43790413354934e+001°)
1.28335978513003e+003	(-1.02404412595278e+000dB,-2.44728222890237e+001°)
1.28921987547308e+003	(-1.03231773645372e+000dB,-2.45663980797580e+001°)
1.29507996581614e+003	(-1.04061282180448e+000dB,-2.46597685661535e+001°)
1.30094005615920e+003	(-1.04892922455248e+000dB,-2.47529336102203e+001°)
1.30680014650226e+003	(-1.05726678672369e+000dB,-2.48458930827721e+001°)
1.31266023684532e+003	(-1.06562535083799e+000dB,-2.49386468603451e+001°)
1.31852032718838e+003	(-1.07400476023986e+000dB,-2.50311948241452e+001°)
1.32438041753144e+003	(-1.08240485829026e+000dB,-2.51235368624934e+001°)
1.33024050787450e+003	(-1.09082548862678e+000dB,-2.52156728700149e+001°)
1.33610059821756e+003	(-1.09926649556782e+000dB,-2.53076027463597e+001°)
1.34196068856062e+003	(-1.10772772358167e+000dB,-2.53993263978197e+001°)
1.34782077890368e+003	(-1.11620901746060e+000dB,-2.54908437367704e+001°)
1.35368086924674e+003	(-1.12471022261821e+000dB,-2.55821546807100e+001°)
1.35954095958980e+003	(-1.13323118483223e+000dB,-2.56732591530330e+001°)
1.36540104993286e+003	(-1.14177174990674e+000dB,-2.57641570840814e+001°)
1.37126114027592e+003	(-1.15033176458233e+000dB,-2.58548484082321e+001°)
1.37712123061898e+003	(-1.15891107568728e+000dB,-2.59453330665594e+001°)
1.38298132096204e+003	(-1.16750953049629e+000dB,-2.60356110056732e+001°)
1.38884141130510e+003	(-1.17612697687904e+000dB,-2.61256821772073e+001°)
1.39470150164816e+003	(-1.18476326273675e+000dB,-2.62155465396108e+001°)
1.40056159199122e+003	(-1.19341823666779e+000dB,-2.63052040559745e+001°)
1.40642168233427e+003	(-1.20209174778481e+000dB,-2.63946546945830e+001°)
1.41228177267733e+003	(-1.21078364548265e+000dB,-2.64838984296443e+001°)
1.41814186302039e+003	(-1.21949377961759e+000dB,-2.65729352406787e+001°)
1.42400195336345e+003	(-1.22822200042947e+000dB,-2.66617651127459e+001°)
1.42986204370651e+003	(-1.23696815862771e+000dB,-2.67503880361340e+001°)
1.43572213404957e+003	(-1.24573210576103e+000dB,-2.68388040050938e+001°)
1.44158222439263e+003	(-1.25451369306058e+000dB,-2.69270130216605e+001°)
1.44744231473569e+003	(-1.26331277281843e+000dB,-2.70150150910365e+001°)
1.45330240507875e+003	(-1.27212919766773e+000dB,-2.71028102239533e+001°)
1.45916249542181e+003	(-1.28096282040555e+000dB,-2.71903984372485e+001°)
1.46502258576487e+003	(-1.28981349473485e+000dB,-2.72777797513310e+001°)
1.47088267610793e+003	(-1.29868107447921e+000dB,-2.73649541928031e+001°)
1.47674276645099e+003	(-1.30756541419191e+000dB,-2.74519217923648e+001°)
1.48260285679405e+003	(-1.31646636868571e+000dB,-2.75386825863835e+001°)
1.48846294713711e+003	(-1.32538379345834e+000dB,-2.76252366154080e+001°)
1.49432303748017e+003	(-1.33431754456385e+000dB,-2.77115839245693e+001°)
1.50018312782323e+003	(-1.34326747777770e+000dB,-2.77977245664488e+001°)
1.50604321816629e+003	(-1.35223345059679e+000dB,-2.78836585941128e+001°)
1.51190330850935e+003	(-1.36121531993678e+000dB,-2.79693860690702e+001°)
1.51776339885240e+003	(-1.37021294386984e+000dB,-2.80549070551985e+001°)
1.52362348919546e+003	(-1.37922618083956e+000dB,-2.81402216214393e+001°)
1.52948357953852e+003	(-1.38825488936845e+000dB,-2.82253298428102e+001°)
1.53534366988158e+003	(-1.39729892894206e+000dB,-2.83102317972572e+001°)
1.54120376022464e+003	(-1.40635815944627e+000dB,-2.83949275675990e+001°)
1.54706385056770e+003	(-1.41543244137712e+000dB,-2.84794172407509e+001°)
1.55292394091076e+003	(-1.42452163531277e+000dB,-2.85637009095810e+001°)
1.55878403125382e+003	(-1.43362560285948e+000dB,-2.86477786694954e+001°)
1.56464412159688e+003	(-1.44274420588705e+000dB,-2.87316506211373e+001°)
1.57050421193994e+003	(-1.45187730664076e+000dB,-2.88153168699637e+001°)
1.57636430228300e+003	(-1.46102476828987e+000dB,-2.88987775242232e+001°)
1.58222439262606e+003	(-1.47018645405160e+000dB,-2.89820326980981e+001°)
1.58808448296912e+003	(-1.47936222807039e+000dB,-2.90650825084772e+001°)
1.59394457331218e+003	(-1.48855195487406e+000dB,-2.91479270768970e+001°)
1.59980466365524e+003	(-1.49775549952196e+000dB,-2.92305665289702e+001°)
