Freq.	V(out)*15.4882
5.86009034305946e+000	(1.64086166938252e+001dB,-2.96097838366829e+000°)
1.17201806861189e+001	(1.63617695971491e+001dB,-5.89639237886529e+000°)
1.75802710291784e+001	(1.62848483903950e+001dB,-8.78179196255863e+000°)
2.34403613722378e+001	(1.61795028909679e+001dB,-1.15948375057591e+001°)
2.93004517152973e+001	(1.60478834229072e+001dB,-1.43160819363464e+001°)
3.51605420583567e+001	(1.58925081316025e+001dB,-1.69294822243168e+001°)
4.10206324014162e+001	(1.57161236893304e+001dB,-1.94226273950495e+001°)
4.68807227444756e+001	(1.55215732819957e+001dB,-2.17867089083325e+001°)
5.27408130875351e+001	(1.53116820523835e+001dB,-2.40162855930959e+001°)
5.86009034305945e+001	(1.50891657574241e+001dB,-2.61089070801182e+001°)
6.44609937736540e+001	(1.48565643835970e+001dB,-2.80646589773111e+001°)
7.03210841167135e+001	(1.46161993225406e+001dB,-2.98856834258719e+001°)
7.61811744597729e+001	(1.43701508604728e+001dB,-3.15757155207740e+001°)
8.20412648028324e+001	(1.41202517927371e+001dB,-3.31396618370520e+001°)
8.79013551458918e+001	(1.38680929500970e+001dB,-3.45832354080582e+001°)
9.37614454889513e+001	(1.36150367978627e+001dB,-3.59126519831653e+001°)
9.96215358320107e+001	(1.33622359522646e+001dB,-3.71343861267716e+001°)
1.05481626175070e+002	(1.31106541574085e+001dB,-3.82549817604939e+001°)
1.11341716518130e+002	(1.28610879522359e+001dB,-3.92809099429188e+001°)
1.17201806861189e+002	(1.26141878114189e+001dB,-4.02184660216031e+001°)
1.23061897204249e+002	(1.23704780021441e+001dB,-4.10736986537742e+001°)
1.28921987547308e+002	(1.21303747367858e+001dB,-4.18523640092254e+001°)
1.34782077890367e+002	(1.18942024240665e+001dB,-4.25598991977777e+001°)
1.40642168233427e+002	(1.16622080045135e+001dB,-4.32014102961241e+001°)
1.46502258576486e+002	(1.14345734350852e+001dB,-4.37816708968728e+001°)
1.52362348919546e+002	(1.12114264672475e+001dB,-4.43051282866574e+001°)
1.58222439262605e+002	(1.09928498739758e+001dB,-4.47759147136521e+001°)
1.64082529605665e+002	(1.07788893056264e+001dB,-4.51978620577809e+001°)
1.69942619948724e+002	(1.05695599432897e+001dB,-4.55745184880803e+001°)
1.75802710291784e+002	(1.03648521085274e+001dB,-4.59091661001692e+001°)
1.81662800634843e+002	(1.01647359797211e+001dB,-4.62048388724288e+001°)
1.87522890977903e+002	(9.96916554231418e+000dB,-4.64643403745411e+001°)
1.93382981320962e+002	(9.77808189024398e+000dB,-4.66902609269128e+001°)
1.99243071664021e+002	(9.59141597707536e+000dB,-4.68849939731360e+001°)
2.05103162007081e+002	(9.40909090378426e+000dB,-4.70507515371538e+001°)
2.10963252350140e+002	(9.23102381658263e+000dB,-4.71895787097035e+001°)
2.16823342693200e+002	(9.05712747647524e+000dB,-4.73033670914727e+001°)
2.22683433036259e+002	(8.88731155407910e+000dB,-4.73938672657482e+001°)
2.28543523379319e+002	(8.72148369531094e+000dB,-4.74627002872326e+001°)
2.34403613722378e+002	(8.55955039450130e+000dB,-4.75113682586150e+001°)
2.40263704065438e+002	(8.40141770641110e+000dB,-4.75412640113035e+001°)
2.46123794408497e+002	(8.24699182526686e+000dB,-4.75536800018254e+001°)
2.51983884751557e+002	(8.09617955125294e+000dB,-4.75498164139472e+001°)
2.57843975094616e+002	(7.94888866493827e+000dB,-4.75307885971735e+001°)
2.63704065437676e+002	(7.80502822387663e+000dB,-4.74976338399418e+001°)
2.69564155780735e+002	(7.66450879474404e+000dB,-4.74513175567971e+001°)
2.75424246123794e+002	(7.52724263306865e+000dB,-4.73927389552176e+001°)
2.81284336466854e+002	(7.39314381832230e+000dB,-4.73227361711731e+001°)
2.87144426809913e+002	(7.26212835276799e+000dB,-4.72420910171094e+001°)
2.93004517152973e+002	(7.13411423016671e+000dB,-4.71515332534159e+001°)
2.98864607496032e+002	(7.00902147991034e+000dB,-4.70517445538187e+001°)
3.04724697839092e+002	(6.88677219137166e+000dB,-4.69433620904428e+001°)
3.10584788182151e+002	(6.76729052106151e+000dB,-4.68269818326067e+001°)
3.16444878525211e+002	(6.65050268709873e+000dB,-4.67031615635145e+001°)
3.22304968868270e+002	(6.53633695251274e+000dB,-4.65724236481700e+001°)
3.28165059211330e+002	(6.42472360053493e+000dB,-4.64352575643070e+001°)
3.34025149554389e+002	(6.31559490236812e+000dB,-4.62921222376237e+001°)
3.39885239897449e+002	(6.20888508050715e+000dB,-4.61434481674997e+001°)
3.45745330240508e+002	(6.10453026746303e+000dB,-4.59896394080279e+001°)
3.51605420583568e+002	(6.00246846162514e+000dB,-4.58310753668931e+001°)
3.57465510926627e+002	(5.90263948118595e+000dB,-4.56681124776966e+001°)
3.63325601269687e+002	(5.80498491635779e+000dB,-4.55010857353700e+001°)
3.69185691612746e+002	(5.70944808105047e+000dB,-4.53303101048346e+001°)
3.75045781955806e+002	(5.61597396371547e+000dB,-4.51560818466086e+001°)
3.80905872298865e+002	(5.52450917876848e+000dB,-4.49786797153032e+001°)
3.86765962641925e+002	(5.43500191757524e+000dB,-4.47983660827863e+001°)
3.92626052984984e+002	(5.34740190043398e+000dB,-4.46153879748945e+001°)
3.98486143328044e+002	(5.26166032974729e+000dB,-4.44299780368418e+001°)
4.04346233671103e+002	(5.17772984295574e+000dB,-4.42423554172553e+001°)
4.10206324014163e+002	(5.09556446727156e+000dB,-4.40527266052992e+001°)
4.16066414357222e+002	(5.01511957539309e+000dB,-4.38612861965325e+001°)
4.21926504700282e+002	(4.93635184253559e+000dB,-4.36682176063330e+001°)
4.27786595043341e+002	(4.85921920398443e+000dB,-4.34736937413553e+001°)
4.33646685386401e+002	(4.78368081464618e+000dB,-4.32778776200419e+001°)
4.39506775729460e+002	(4.70969700964533e+000dB,-4.30809229479822e+001°)
4.45366866072519e+002	(4.63722926589478e+000dB,-4.28829746625437e+001°)
4.51226956415579e+002	(4.56624016465967e+000dB,-4.26841694393398e+001°)
4.57087046758638e+002	(4.49669335655486e+000dB,-4.24846361620419e+001°)
4.62947137101698e+002	(4.42855352662843e+000dB,-4.22844963610265e+001°)
4.68807227444757e+002	(4.36178636050825e+000dB,-4.20838646339801e+001°)
4.74667317787817e+002	(4.29635851290906e+000dB,-4.18828490260629e+001°)
4.80527408130876e+002	(4.23223757580474e+000dB,-4.16815514000642e+001°)
4.86387498473936e+002	(4.16939204873344e+000dB,-4.14800677713826e+001°)
4.92247588816995e+002	(4.10779130984676e+000dB,-4.12784886323604e+001°)
4.98107679160055e+002	(4.04740558779845e+000dB,-4.10768992487095e+001°)
5.03967769503114e+002	(3.98820593478968e+000dB,-4.08753799461670e+001°)
5.09827859846174e+002	(3.93016420058638e+000dB,-4.06740063737743e+001°)
5.15687950189233e+002	(3.87325300737451e+000dB,-4.04728497544189e+001°)
5.21548040532293e+002	(3.81744572589204e+000dB,-4.02719771221208e+001°)
5.27408130875352e+002	(3.76271645154789e+000dB,-4.00714515406149e+001°)
5.33268221218412e+002	(3.70903998218013e+000dB,-3.98713323164633e+001°)
5.39128311561471e+002	(3.65639179646014e+000dB,-3.96716751934633e+001°)
5.44988401904531e+002	(3.60474803283853e+000dB,-3.94725325408654e+001°)
5.50848492247590e+002	(3.55408546912508e+000dB,-3.92739535276886e+001°)
5.56708582590650e+002	(3.50438150340703e+000dB,-3.90759842910517e+001°)
5.62568672933709e+002	(3.45561413474744e+000dB,-3.88786680914584e+001°)
5.68428763276769e+002	(3.40776194542031e+000dB,-3.86820454606385e+001°)
5.74288853619828e+002	(3.36080408294964e+000dB,-3.84861543454623e+001°)
5.80148943962888e+002	(3.31472024352267e+000dB,-3.82910302377368e+001°)
5.86009034305947e+002	(3.26949065548270e+000dB,-3.80967063000206e+001°)
5.91869124649006e+002	(3.22509606338325e+000dB,-3.79032134867722e+001°)
5.97729214992066e+002	(3.18151771305796e+000dB,-3.77105806568160e+001°)
6.03589305335125e+002	(3.13873733634643e+000dB,-3.75188346784823e+001°)
6.09449395678185e+002	(3.09673713740609e+000dB,-3.73280005337749e+001°)
6.15309486021244e+002	(3.05549977840159e+000dB,-3.71381014121747e+001°)
6.21169576364304e+002	(3.01500836662714e+000dB,-3.69491588035603e+001°)
6.27029666707363e+002	(2.97524644110930e+000dB,-3.67611925852789e+001°)
6.32889757050423e+002	(2.93619796069363e+000dB,-3.65742211000143e+001°)
6.38749847393482e+002	(2.89784729158746e+000dB,-3.63882612407547e+001°)
6.44609937736542e+002	(2.86017919565209e+000dB,-3.62033285201296e+001°)
6.50470028079601e+002	(2.82317881962184e+000dB,-3.60194371410008e+001°)
6.56330118422661e+002	(2.78683168344110e+000dB,-3.58366000653504e+001°)
6.62190208765720e+002	(2.75112367014084e+000dB,-3.56548290776200e+001°)
6.68050299108780e+002	(2.71604101587636e+000dB,-3.54741348422510e+001°)
6.73910389451839e+002	(2.68157029907801e+000dB,-3.52945269649883e+001°)
6.79770479794899e+002	(2.64769843172189e+000dB,-3.51160140462644e+001°)
6.85630570137958e+002	(2.61441264997244e+000dB,-3.49386037294731e+001°)
6.91490660481018e+002	(2.58170050420344e+000dB,-3.47623027580646e+001°)
6.97350750824077e+002	(2.54954985164744e+000dB,-3.45871170150849e+001°)
7.03210841167137e+002	(2.51794884686564e+000dB,-3.44130515719711e+001°)
7.09070931510196e+002	(2.48688593424238e+000dB,-3.42401107290967e+001°)
7.14931021853256e+002	(2.45634983936801e+000dB,-3.40682980594123e+001°)
7.20791112196315e+002	(2.42632956208428e+000dB,-3.38976164427782e+001°)
7.26651202539375e+002	(2.39681436831392e+000dB,-3.37280681049385e+001°)
7.32511292882434e+002	(2.36779378336391e+000dB,-3.35596546538993e+001°)
7.38371383225494e+002	(2.33925758451718e+000dB,-3.33923771099272e+001°)
7.44231473568553e+002	(2.31119579451182e+000dB,-3.32262359398036e+001°)
7.50091563911613e+002	(2.28359867459201e+000dB,-3.30612310852983e+001°)
7.55951654254672e+002	(2.25645671855679e+000dB,-3.28973619933950e+001°)
7.61811744597731e+002	(2.22976064598401e+000dB,-3.27346276427647e+001°)
7.67671834940791e+002	(2.20350139666238e+000dB,-3.25730265703450e+001°)
7.73531925283850e+002	(2.17767012464709e+000dB,-3.24125568940017e+001°)
7.79392015626910e+002	(2.15225819217425e+000dB,-3.22532163408294e+001°)
7.85252105969969e+002	(2.12725716480767e+000dB,-3.20950022650899e+001°)
7.91112196313029e+002	(2.10265880547415e+000dB,-3.19379116710814e+001°)
7.96972286656088e+002	(2.07845506962026e+000dB,-3.17819412345933e+001°)
8.02832376999148e+002	(2.05463810003541e+000dB,-3.16270873224286e+001°)
8.08692467342207e+002	(2.03120022196298e+000dB,-3.14733460084202e+001°)
8.14552557685267e+002	(2.00813393838230e+000dB,-3.13207130935725e+001°)
8.20412648028326e+002	(1.98543192517694e+000dB,-3.11691841231622e+001°)
8.26272738371386e+002	(1.96308702700480e+000dB,-3.10187544004866e+001°)
8.32132828714445e+002	(1.94109225272712e+000dB,-3.08694190025440e+001°)
8.37992919057505e+002	(1.91944077106669e+000dB,-3.07211727978772e+001°)
8.43853009400564e+002	(1.89812590664580e+000dB,-3.05740104559086e+001°)
8.49713099743624e+002	(1.87714113595238e+000dB,-3.04279264626598e+001°)
8.55573190086683e+002	(1.85648008346696e+000dB,-3.02829151328116e+001°)
8.61433280429743e+002	(1.83613651779760e+000dB,-3.01389706210928e+001°)
8.67293370772802e+002	(1.81610434799412e+000dB,-2.99960869350672e+001°)
8.73153461115862e+002	(1.79637762042201e+000dB,-2.98542579435990e+001°)
8.79013551458921e+002	(1.77695051428198e+000dB,-2.97134773899223e+001°)
8.84873641801981e+002	(1.75781733949277e+000dB,-2.95737388983702e+001°)
8.90733732145040e+002	(1.73897253238684e+000dB,-2.94350359874782e+001°)
8.96593822488100e+002	(1.72041065312249e+000dB,-2.92973620750628e+001°)
9.02453912831159e+002	(1.70212638242168e+000dB,-2.91607104884639e+001°)
9.08314003174219e+002	(1.68411451823783e+000dB,-2.90250744736803e+001°)
9.14174093517278e+002	(1.66636997343925e+000dB,-2.88904472001790e+001°)
9.20034183860338e+002	(1.64888777255430e+000dB,-2.87568217701434e+001°)
9.25894274203397e+002	(1.63166304889377e+000dB,-2.86241912260227e+001°)
9.31754364546456e+002	(1.61469104218668e+000dB,-2.84925485541533e+001°)
9.37614454889516e+002	(1.59796709575217e+000dB,-2.83618866945175e+001°)
9.43474545232575e+002	(1.58148665408841e+000dB,-2.82321985435815e+001°)
9.49334635575635e+002	(1.56524526011383e+000dB,-2.81034769618863e+001°)
9.55194725918694e+002	(1.54923855309535e+000dB,-2.79757147790375e+001°)
9.61054816261754e+002	(1.53346226604163e+000dB,-2.78489047977553e+001°)
9.66914906604813e+002	(1.51791222359666e+000dB,-2.77230397998390e+001°)
9.72774996947873e+002	(1.50258433968222e+000dB,-2.75981125502782e+001°)
9.78635087290932e+002	(1.48747461533758e+000dB,-2.74741158010197e+001°)
9.84495177633992e+002	(1.47257913678502e+000dB,-2.73510422957977e+001°)
9.90355267977051e+002	(1.45789407310849e+000dB,-2.72288847744252e+001°)
9.96215358320111e+002	(1.44341567440614e+000dB,-2.71076359743812e+001°)
1.00207544866317e+003	(1.42914026995097e+000dB,-2.69872886373035e+001°)
1.00793553900623e+003	(1.41506426604345e+000dB,-2.68678355095119e+001°)
1.01379562934929e+003	(1.40118414440524e+000dB,-2.67492693467259e+001°)
1.01965571969235e+003	(1.38749646019951e+000dB,-2.66315829162497e+001°)
1.02551581003541e+003	(1.37399784049141e+000dB,-2.65147690001978e+001°)
1.03137590037847e+003	(1.36068498230216e+000dB,-2.63988203980311e+001°)
1.03723599072153e+003	(1.34755465106196e+000dB,-2.62837299285147e+001°)
1.04309608106459e+003	(1.33460367921205e+000dB,-2.61694904326937e+001°)
1.04895617140765e+003	(1.32182896420948e+000dB,-2.60560947757822e+001°)
1.05481626175071e+003	(1.30922746737149e+000dB,-2.59435358488946e+001°)
1.06067635209377e+003	(1.29679621214991e+000dB,-2.58318065718614e+001°)
1.06653644243682e+003	(1.28453228277365e+000dB,-2.57208998945210e+001°)
1.07239653277988e+003	(1.27243282284772e+000dB,-2.56108087978674e+001°)
1.07825662312294e+003	(1.26049503400844e+000dB,-2.55015262962188e+001°)
1.08411671346600e+003	(1.24871617436560e+000dB,-2.53930454395528e+001°)
1.08997680380906e+003	(1.23709355754096e+000dB,-2.52853593129542e+001°)
1.09583689415212e+003	(1.22562455104793e+000dB,-2.51784610398571e+001°)
1.10169698449518e+003	(1.21430657535775e+000dB,-2.50723437819652e+001°)
1.10755707483824e+003	(1.20313710243699e+000dB,-2.49670007405512e+001°)
1.11341716518130e+003	(1.19211365463601e+000dB,-2.48624251583836e+001°)
1.11927725552436e+003	(1.18123380377038e+000dB,-2.47586103202267e+001°)
1.12513734586742e+003	(1.17049516953262e+000dB,-2.46555495524747e+001°)
1.13099743621048e+003	(1.15989541893625e+000dB,-2.45532362266683e+001°)
1.13685752655354e+003	(1.14943226473618e+000dB,-2.44516637575076e+001°)
1.14271761689660e+003	(1.13910346492645e+000dB,-2.43508256056918e+001°)
1.14857770723966e+003	(1.12890682117659e+000dB,-2.42507152768015e+001°)
1.15443779758272e+003	(1.11884017824897e+000dB,-2.41513263234920e+001°)
1.16029788792578e+003	(1.10890142288880e+000dB,-2.40526523448635e+001°)
1.16615797826884e+003	(1.09908848285462e+000dB,-2.39546869874909e+001°)
1.17201806861190e+003	(1.08939932608501e+000dB,-2.38574239454607e+001°)
1.17787815895495e+003	(1.07983195982279e+000dB,-2.37608569616483e+001°)
1.18373824929801e+003	(1.07038442962608e+000dB,-2.36649798266650e+001°)
1.18959833964107e+003	(1.06105481858309e+000dB,-2.35697863806320e+001°)
1.19545842998413e+003	(1.05184124644263e+000dB,-2.34752705121494e+001°)
1.20131852032719e+003	(1.04274186891987e+000dB,-2.33814261595165e+001°)
1.20717861067025e+003	(1.03375487686232e+000dB,-2.32882473102238e+001°)
1.21303870101331e+003	(1.02487849544097e+000dB,-2.31957280015685e+001°)
1.21889879135637e+003	(1.01611098334039e+000dB,-2.31038623208246e+001°)
1.22475888169943e+003	(1.00745063223267e+000dB,-2.30126444044346e+001°)
1.23061897204249e+003	(9.98895765862336e-001dB,-2.29220684390941e+001°)
1.23647906238555e+003	(9.90444739424900e-001dB,-2.28321286619430e+001°)
1.24233915272861e+003	(9.82095938951804e-001dB,-2.27428193591466e+001°)
1.24819924307167e+003	(9.73847780479716e-001dB,-2.26541348673572e+001°)
1.25405933341473e+003	(9.65698709611477e-001dB,-2.25660695729300e+001°)
1.25991942375779e+003	(9.57647200723183e-001dB,-2.24786179119756e+001°)
1.26577951410085e+003	(9.49691756395874e-001dB,-2.23917743702897e+001°)
1.27163960444391e+003	(9.41830906981950e-001dB,-2.23055334835602e+001°)
1.27749969478697e+003	(9.34063209611966e-001dB,-2.22198898367307e+001°)
1.28335978513003e+003	(9.26387248082995e-001dB,-2.21348380639200e+001°)
1.28921987547308e+003	(9.18801631900500e-001dB,-2.20503728488334e+001°)
1.29507996581614e+003	(9.11304996146073e-001dB,-2.19664889235881e+001°)
1.30094005615920e+003	(9.03896000520142e-001dB,-2.18831810699537e+001°)
1.30680014650226e+003	(8.96573329115077e-001dB,-2.18004441175078e+001°)
1.31266023684532e+003	(8.89335689742547e-001dB,-2.17182729446125e+001°)
1.31852032718838e+003	(8.82181813613733e-001dB,-2.16366624775951e+001°)
1.32438041753144e+003	(8.75110454691651e-001dB,-2.15556076911121e+001°)
1.33024050787450e+003	(8.68120389195280e-001dB,-2.14751036069459e+001°)
1.33610059821756e+003	(8.61210415296273e-001dB,-2.13951452945698e+001°)
1.34196068856062e+003	(8.54379352614913e-001dB,-2.13157278705748e+001°)
1.34782077890368e+003	(8.47626041692281e-001dB,-2.12368464986127e+001°)
1.35368086924674e+003	(8.40949343565646e-001dB,-2.11584963882743e+001°)
1.35954095958980e+003	(8.34348139489624e-001dB,-2.10806727959738e+001°)
1.36540104993286e+003	(8.27821330382452e-001dB,-2.10033710238896e+001°)
1.37126114027592e+003	(8.21367836508182e-001dB,-2.09265864199338e+001°)
1.37712123061898e+003	(8.14986596995068e-001dB,-2.08503143772335e+001°)
1.38298132096204e+003	(8.08676569535661e-001dB,-2.07745503340014e+001°)
1.38884141130510e+003	(8.02436730003025e-001dB,-2.06992897731107e+001°)
1.39470150164816e+003	(7.96266072007913e-001dB,-2.06245282219811e+001°)
1.40056159199122e+003	(7.90163606662414e-001dB,-2.05502612516634e+001°)
1.40642168233427e+003	(7.84128362094376e-001dB,-2.04764844773557e+001°)
1.41228177267733e+003	(7.78159383210838e-001dB,-2.04031935571464e+001°)
1.41814186302039e+003	(7.72255731368994e-001dB,-2.03303841923717e+001°)
1.42400195336345e+003	(7.66416483828049e-001dB,-2.02580521271346e+001°)
1.42986204370651e+003	(7.60640733809566e-001dB,-2.01861931473966e+001°)
1.43572213404957e+003	(7.54927590028216e-001dB,-2.01148030816056e+001°)
1.44158222439263e+003	(7.49276176003144e-001dB,-2.00438777994815e+001°)
1.44744231473569e+003	(7.43685630464946e-001dB,-1.99734132118542e+001°)
1.45330240507875e+003	(7.38155106473114e-001dB,-1.99034052707926e+001°)
1.45916249542181e+003	(7.32683771528789e-001dB,-1.98338499686305e+001°)
1.46502258576487e+003	(7.27270806950143e-001dB,-1.97647433379765e+001°)
1.47088267610793e+003	(7.21915407847306e-001dB,-1.96960814511274e+001°)
1.47674276645099e+003	(7.16616782733687e-001dB,-1.96278604197928e+001°)
1.48260285679405e+003	(7.11374153414240e-001dB,-1.95600763950487e+001°)
1.48846294713711e+003	(7.06186754541543e-001dB,-1.94927255663126e+001°)
1.49432303748017e+003	(7.01053833436039e-001dB,-1.94258041615289e+001°)
1.50018312782323e+003	(6.95974649893424e-001dB,-1.93593084465908e+001°)
1.50604321816629e+003	(6.90948475890711e-001dB,-1.92932347252491e+001°)
1.51190330850935e+003	(6.85974595402109e-001dB,-1.92275793382216e+001°)
1.51776339885240e+003	(6.81052304070763e-001dB,-1.91623386632643e+001°)
1.52362348919546e+003	(6.76180909120734e-001dB,-1.90975091147798e+001°)
1.52948357953852e+003	(6.71359728999936e-001dB,-1.90330871431782e+001°)
1.53534366988158e+003	(6.66588093264775e-001dB,-1.89690692350304e+001°)
1.54120376022464e+003	(6.61865342386400e-001dB,-1.89054519120240e+001°)
1.54706385056770e+003	(6.57190827432598e-001dB,-1.88422317315767e+001°)
1.55292394091076e+003	(6.52563909998602e-001dB,-1.87794052852698e+001°)
1.55878403125382e+003	(6.47983961837311e-001dB,-1.87169691993918e+001°)
1.56464412159688e+003	(6.43450364801373e-001dB,-1.86549201342745e+001°)
1.57050421193994e+003	(6.38962510803764e-001dB,-1.85932547843654e+001°)
1.57636430228300e+003	(6.34519801210594e-001dB,-1.85319698770318e+001°)
1.58222439262606e+003	(6.30121647066045e-001dB,-1.84710621730379e+001°)
1.58808448296912e+003	(6.25767468649521e-001dB,-1.84105284656711e+001°)
1.59394457331218e+003	(6.21456695529837e-001dB,-1.83503655808592e+001°)
1.59980466365524e+003	(6.17188766192725e-001dB,-1.82905703764306e+001°)
1.60566475399830e+003	(6.12963128007203e-001dB,-1.82311397419925e+001°)
1.61152484434136e+003	(6.08779236962967e-001dB,-1.81720705986676e+001°)
1.61738493468442e+003	(6.04636557559995e-001dB,-1.81133598982807e+001°)
1.62324502502748e+003	(6.00534562765172e-001dB,-1.80550046239914e+001°)
