Freq.	V(out)*15.4882
5.86009034305946e+000	(-2.01833442150274e+001dB,2.29902036748184e+000°)
1.17201806861189e+001	(-2.01579048148532e+001dB,4.58800405505870e+000°)
1.75802710291784e+001	(-2.01158405394799e+001dB,6.85714996755111e+000°)
2.34403613722378e+001	(-2.00576399018601e+001dB,9.09711453640425e+000°)
2.93004517152973e+001	(-1.99839607856443e+001dB,1.12992078272256e+001°)
3.51605420583567e+001	(-1.98956068589143e+001dB,1.34555542811983e+001°)
4.10206324014162e+001	(-1.97935003853525e+001dB,1.55592119976842e+001°)
4.68807227444756e+001	(-1.96786532298546e+001dB,1.76042481694906e+001°)
5.27408130875351e+001	(-1.95521377706423e+001dB,1.95857717570125e+001°)
5.86009034305945e+001	(-1.94150591937424e+001dB,2.14999273479639e+001°)
6.44609937736540e+001	(-1.92685303184882e+001dB,2.33438561689720e+001°)
7.03210841167135e+001	(-1.91136497336248e+001dB,2.51156313317958e+001°)
7.61811744597729e+001	(-1.89514836652203e+001dB,2.68141746850977e+001°)
8.20412648028324e+001	(-1.87830516850331e+001dB,2.84391622672296e+001°)
8.79013551458918e+001	(-1.86093161176425e+001dB,2.99909245206122e+001°)
9.37614454889513e+001	(-1.84311748297927e+001dB,3.14703463366661e+001°)
9.96215358320107e+001	(-1.82494569755731e+001dB,3.28787708238995e+001°)
1.05481626175070e+002	(-1.80649212213545e+001dB,3.42179095596452e+001°)
1.11341716518130e+002	(-1.78782559693970e+001dB,3.54897610810041e+001°)
1.17201806861189e+002	(-1.76900811260733e+001dB,3.66965385358092e+001°)
1.23061897204249e+002	(-1.75009510066005e+001dB,3.78406067618753e+001°)
1.28921987547308e+002	(-1.73113580258329e+001dB,3.89244285835210e+001°)
1.34782077890367e+002	(-1.71217368829199e+001dB,3.99505197868573e+001°)
1.40642168233427e+002	(-1.69324690081067e+001dB,4.09214120331566e+001°)
1.46502258576486e+002	(-1.67438870869541e+001dB,4.18396228645989e+001°)
1.52362348919546e+002	(-1.65562795290919e+001dB,4.27076319244046e+001°)
1.58222439262605e+002	(-1.63698947816259e+001dB,4.35278625310045e+001°)
1.64082529605665e+002	(-1.61849454214120e+001dB,4.43026677967889e+001°)
1.69942619948724e+002	(-1.60016119842290e+001dB,4.50343205520319e+001°)
1.75802710291784e+002	(-1.58200465082774e+001dB,4.57250064140210e+001°)
1.81662800634843e+002	(-1.56403757831195e+001dB,4.63768194231129e+001°)
1.87522890977903e+002	(-1.54627043069562e+001dB,4.69917597468572e+001°)
1.93382981320962e+002	(-1.52871169607770e+001dB,4.75717330273213e+001°)
1.99243071664021e+002	(-1.51136814141642e+001dB,4.81185510140357e+001°)
2.05103162007081e+002	(-1.49424502801958e+001dB,4.86339331846641e+001°)
2.10963252350140e+002	(-1.47734630374963e+001dB,4.91195091075291e+001°)
2.16823342693200e+002	(-1.46067477398608e+001dB,4.95768213450945e+001°)
2.22683433036259e+002	(-1.44423225322357e+001dB,5.00073287355793e+001°)
2.28543523379319e+002	(-1.42801969913745e+001dB,5.04124099220314e+001°)
2.34403613722378e+002	(-1.41203733094952e+001dB,5.07933670251117e+001°)
2.40263704065438e+002	(-1.39628473369720e+001dB,5.11514293780262e+001°)
2.46123794408497e+002	(-1.38076094991177e+001dB,5.14877572603526e+001°)
2.51983884751557e+002	(-1.36546456015183e+001dB,5.18034455825369e+001°)
2.57843975094616e+002	(-1.35039375356714e+001dB,5.20995274848664e+001°)
2.63704065437676e+002	(-1.33554638970418e+001dB,5.23769778246384e+001°)
2.69564155780735e+002	(-1.32092005255418e+001dB,5.26367165330143e+001°)
2.75424246123794e+002	(-1.30651209772780e+001dB,5.28796118292668e+001°)
2.81284336466854e+002	(-1.29231969359631e+001dB,5.31064832850836e+001°)
2.87144426809913e+002	(-1.27833985710092e+001dB,5.33181047353739e+001°)
2.93004517152973e+002	(-1.26456948492864e+001dB,5.35152070350568e+001°)
2.98864607496032e+002	(-1.25100538052310e+001dB,5.36984806634019e+001°)
3.04724697839092e+002	(-1.23764427751325e+001dB,5.38685781793383e+001°)
3.10584788182151e+002	(-1.22448285999752e+001dB,5.40261165322880e+001°)
3.16444878525211e+002	(-1.21151777999601e+001dB,5.41716792338592e+001°)
3.22304968868270e+002	(-1.19874567252072e+001dB,5.43058183964895e+001°)
3.28165059211330e+002	(-1.18616316848568e+001dB,5.44290566452880e+001°)
3.34025149554389e+002	(-1.17376690574938e+001dB,5.45418889095990e+001°)
3.39885239897449e+002	(-1.16155353856234e+001dB,5.46447841008700e+001°)
3.45745330240508e+002	(-1.14951974551667e+001dB,5.47381866831757e+001°)
3.51605420583568e+002	(-1.13766223631723e+001dB,5.48225181428799e+001°)
3.57465510926627e+002	(-1.12597775742706e+001dB,5.48981783634619e+001°)
3.63325601269687e+002	(-1.11446309676825e+001dB,5.49655469114518e+001°)
3.69185691612746e+002	(-1.10311508761865e+001dB,5.50249842391431e+001°)
3.75045781955806e+002	(-1.09193061173113e+001dB,5.50768328093627e+001°)
3.80905872298865e+002	(-1.08090660188345e+001dB,5.51214181475156e+001°)
3.86765962641925e+002	(-1.07004004384967e+001dB,5.51590498256076e+001°)
3.92626052984984e+002	(-1.05932797794704e+001dB,5.51900223828670e+001°)
3.98486143328044e+002	(-1.04876750006421e+001dB,5.52146161870237e+001°)
4.04346233671103e+002	(-1.03835576248810e+001dB,5.52330982405541e+001°)
4.10206324014163e+002	(-1.02808997429269e+001dB,5.52457229352674e+001°)
4.16066414357222e+002	(-1.01796740154749e+001dB,5.52527327589895e+001°)
4.21926504700282e+002	(-1.00798536726113e+001dB,5.52543589574431e+001°)
4.27786595043341e+002	(-9.98141251168435e+000dB,5.52508221544598e+001°)
4.33646685386401e+002	(-9.88432489297271e+000dB,5.52423329332274e+001°)
4.39506775729460e+002	(-9.78856573463776e+000dB,5.52290923813726e+001°)
4.45366866072519e+002	(-9.69411050616856e+000dB,5.52112926021962e+001°)
4.51226956415579e+002	(-9.60093522091892e+000dB,5.51891171943967e+001°)
4.57087046758638e+002	(-9.50901642759585e+000dB,5.51627417023580e+001°)
4.62947137101698e+002	(-9.41833120171549e+000dB,5.51323340390992e+001°)
4.68807227444757e+002	(-9.32885713601735e+000dB,5.50980548835602e+001°)
4.74667317787817e+002	(-9.24057233045317e+000dB,5.50600580539975e+001°)
4.80527408130876e+002	(-9.15345538222568e+000dB,5.50184908591312e+001°)
4.86387498473936e+002	(-9.06748537539930e+000dB,5.49734944284354e+001°)
4.92247588816995e+002	(-8.98264187008551e+000dB,5.49252040229315e+001°)
4.98107679160055e+002	(-8.89890489207865e+000dB,5.48737493278763e+001°)
5.03967769503114e+002	(-8.81625492208417e+000dB,5.48192547283968e+001°)
5.09827859846174e+002	(-8.73467288482442e+000dB,5.47618395692055e+001°)
5.15687950189233e+002	(-8.65414013876220e+000dB,5.47016183995291e+001°)
5.21548040532293e+002	(-8.57463846490565e+000dB,5.46387012039623e+001°)
5.27408130875352e+002	(-8.49615005713374e+000dB,5.45731936205083e+001°)
5.33268221218412e+002	(-8.41865751124967e+000dB,5.45051971461919e+001°)
5.39128311561471e+002	(-8.34214381489783e+000dB,5.44348093313447e+001°)
5.44988401904531e+002	(-8.26659233771669e+000dB,5.43621239631809e+001°)
5.50848492247590e+002	(-8.19198682133441e+000dB,5.42872312392626e+001°)
5.56708582590650e+002	(-8.11831136962514e+000dB,5.42102179315447e+001°)
5.62568672933709e+002	(-8.04555043945754e+000dB,5.41311675416131e+001°)
5.68428763276769e+002	(-7.97368883128503e+000dB,5.40501604475534e+001°)
5.74288853619828e+002	(-7.90271168007205e+000dB,5.39672740430317e+001°)
5.80148943962888e+002	(-7.83260444651801e+000dB,5.38825828690532e+001°)
5.86009034305947e+002	(-7.76335290845450e+000dB,5.37961587388198e+001°)
5.91869124649006e+002	(-7.69494315233362e+000dB,5.37080708560785e+001°)
5.97729214992066e+002	(-7.62736156494635e+000dB,5.36183859273719e+001°)
6.03589305335125e+002	(-7.56059482581817e+000dB,5.35271682686254e+001°)
6.09449395678185e+002	(-7.49462989896574e+000dB,5.34344799061805e+001°)
6.15309486021244e+002	(-7.42945402570424e+000dB,5.33403806728799e+001°)
6.21169576364304e+002	(-7.36505471704863e+000dB,5.32449282992458e+001°)
6.27029666707363e+002	(-7.30141974668456e+000dB,5.31481785001982e+001°)
6.32889757050423e+002	(-7.23853714401584e+000dB,5.30501850574837e+001°)
6.38749847393482e+002	(-7.17639518742471e+000dB,5.29509998980806e+001°)
6.44609937736542e+002	(-7.11498239762931e+000dB,5.28506731687882e+001°)
6.50470028079601e+002	(-7.05428753135735e+000dB,5.27492533072494e+001°)
6.56330118422661e+002	(-6.99429957535948e+000dB,5.26467871096138e+001°)
6.62190208765720e+002	(-6.93500774006079e+000dB,5.25433197948996e+001°)
6.68050299108780e+002	(-6.87640145389169e+000dB,5.24388950664181e+001°)
6.73910389451839e+002	(-6.81847035788949e+000dB,5.23335551703575e+001°)
6.79770479794899e+002	(-6.76120429968743e+000dB,5.22273409515103e+001°)
6.85630570137958e+002	(-6.70459332872721e+000dB,5.21202919066375e+001°)
6.91490660481018e+002	(-6.64862769079446e+000dB,5.20124462352486e+001°)
6.97350750824077e+002	(-6.59329782295998e+000dB,5.19038408881310e+001°)
7.03210841167137e+002	(-6.53859434907552e+000dB,5.17945116137791e+001°)
7.09070931510196e+002	(-6.48450807455187e+000dB,5.16844930025944e+001°)
7.14931021853256e+002	(-6.43102998223964e+000dB,5.15738185293130e+001°)
7.20791112196315e+002	(-6.37815122770965e+000dB,5.14625205934357e+001°)
7.26651202539375e+002	(-6.32586313515387e+000dB,5.13506305579918e+001°)
7.32511292882434e+002	(-6.27415719295631e+000dB,5.12381787865398e+001°)
7.38371383225494e+002	(-6.22302504991799e+000dB,5.11251946786870e+001°)
7.44231473568553e+002	(-6.17245851108872e+000dB,5.10117067039988e+001°)
7.50091563911613e+002	(-6.12244953411964e+000dB,5.08977424345557e+001°)
7.55951654254672e+002	(-6.07299022550718e+000dB,5.07833285761044e+001°)
7.61811744597731e+002	(-6.02407283691983e+000dB,5.06684909979086e+001°)
7.67671834940791e+002	(-5.97568976185380e+000dB,5.05532547614125e+001°)
7.73531925283850e+002	(-5.92783353216991e+000dB,5.04376441476893e+001°)
7.79392015626910e+002	(-5.88049681478612e+000dB,5.03216826837828e+001°)
7.85252105969969e+002	(-5.83367240850859e+000dB,5.02053931679982e+001°)
7.91112196313029e+002	(-5.78735324101225e+000dB,5.00887976941908e+001°)
7.96972286656088e+002	(-5.74153236574510e+000dB,4.99719176750574e+001°)
8.02832376999148e+002	(-5.69620295900422e+000dB,4.98547738645272e+001°)
8.08692467342207e+002	(-5.65135831713775e+000dB,4.97373863792829e+001°)
8.14552557685267e+002	(-5.60699185381592e+000dB,4.96197747194464e+001°)
8.20412648028326e+002	(-5.56309709736710e+000dB,4.95019577884626e+001°)
8.26272738371386e+002	(-5.51966768802489e+000dB,4.93839539121897e+001°)
8.32132828714445e+002	(-5.47669737563785e+000dB,4.92657808573422e+001°)
8.37992919057505e+002	(-5.43418001702151e+000dB,4.91474558491532e+001°)
8.43853009400564e+002	(-5.39210957367128e+000dB,4.90289955884328e+001°)
8.49713099743624e+002	(-5.35048010947351e+000dB,4.89104162679814e+001°)
8.55573190086683e+002	(-5.30928578834334e+000dB,4.87917335883664e+001°)
8.61433280429743e+002	(-5.26852087211979e+000dB,4.86729627731630e+001°)
8.67293370772802e+002	(-5.22817971850808e+000dB,4.85541185836386e+001°)
8.73153461115862e+002	(-5.18825677866569e+000dB,4.84352153328181e+001°)
8.79013551458921e+002	(-5.14874659580132e+000dB,4.83162668992483e+001°)
8.84873641801981e+002	(-5.10964380261064e+000dB,4.81972867400150e+001°)
8.90733732145040e+002	(-5.07094311961065e+000dB,4.80782879034772e+001°)
8.96593822488100e+002	(-5.03263935342856e+000dB,4.79592830415363e+001°)
9.02453912831159e+002	(-4.99472739471252e+000dB,4.78402844213851e+001°)
9.08314003174219e+002	(-4.95720221668564e+000dB,4.77213039369778e+001°)
9.14174093517278e+002	(-4.92005887318007e+000dB,4.76023531199850e+001°)
9.20034183860338e+002	(-4.88329249703517e+000dB,4.74834431504419e+001°)
9.25894274203397e+002	(-4.84689829859492e+000dB,4.73645848670482e+001°)
9.31754364546456e+002	(-4.81087156399930e+000dB,4.72457887770679e+001°)
9.37614454889516e+002	(-4.77520765369707e+000dB,4.71270650659359e+001°)
9.43474545232575e+002	(-4.73990200097106e+000dB,4.70084236065413e+001°)
9.49334635575635e+002	(-4.70495011043312e+000dB,4.68898739681869e+001°)
9.55194725918694e+002	(-4.67034755659862e+000dB,4.67714254252660e+001°)
9.61054816261754e+002	(-4.63608998259372e+000dB,4.66530869656767e+001°)
9.66914906604813e+002	(-4.60217309873276e+000dB,4.65348672989287e+001°)
9.72774996947873e+002	(-4.56859268108847e+000dB,4.64167748639785e+001°)
9.78635087290932e+002	(-4.53534457052327e+000dB,4.62988178369107e+001°)
9.84495177633992e+002	(-4.50242467113176e+000dB,4.61810041382364e+001°)
9.90355267977051e+002	(-4.46982894905980e+000dB,4.60633414400386e+001°)
9.96215358320111e+002	(-4.43755343165693e+000dB,4.59458371729617e+001°)
1.00207544866317e+003	(-4.40559420567934e+000dB,4.58284985327631e+001°)
1.00793553900623e+003	(-4.37394741684494e+000dB,4.57113324869592e+001°)
1.01379562934929e+003	(-4.34260926821668e+000dB,4.55943457809975e+001°)
1.01965571969235e+003	(-4.31157601948121e+000dB,4.54775449444352e+001°)
1.02551581003541e+003	(-4.28084398555063e+000dB,4.53609362967710e+001°)
1.03137590037847e+003	(-4.25040953582332e+000dB,4.52445259532431e+001°)
1.03723599072153e+003	(-4.22026909311122e+000dB,4.51283198303735e+001°)
1.04309608106459e+003	(-4.19041913252194e+000dB,4.50123236513292e+001°)
1.04895617140765e+003	(-4.16085618063938e+000dB,4.48965429511867e+001°)
1.05481626175071e+003	(-4.13157681463046e+000dB,4.47809830820199e+001°)
1.06067635209377e+003	(-4.10257766113957e+000dB,4.46656492177839e+001°)
1.06653644243682e+003	(-4.07385539561702e+000dB,4.45505463591509e+001°)
1.07239653277988e+003	(-4.04540674124156e+000dB,4.44356793381071e+001°)
1.07825662312294e+003	(-4.01722846827534e+000dB,4.43210528225113e+001°)
1.08411671346600e+003	(-3.98931739301214e+000dB,4.42066713204255e+001°)
1.08997680380906e+003	(-3.96167037722550e+000dB,4.40925391844299e+001°)
1.09583689415212e+003	(-3.93428432709896e+000dB,4.39786606156937e+001°)
1.10169698449518e+003	(-3.90715619258661e+000dB,4.38650396680233e+001°)
1.10755707483824e+003	(-3.88028296680436e+000dB,4.37516802518016e+001°)
1.11341716518130e+003	(-3.85366168487495e+000dB,4.36385861376850e+001°)
1.11927725552436e+003	(-3.82728942359962e+000dB,4.35257609603844e+001°)
1.12513734586742e+003	(-3.80116330063736e+000dB,4.34132082222245e+001°)
1.13099743621048e+003	(-3.77528047361750e+000dB,4.33009312965849e+001°)
1.13685752655354e+003	(-3.74963813977495e+000dB,4.31889334313633e+001°)
1.14271761689660e+003	(-3.72423353495514e+000dB,4.30772177521952e+001°)
1.14857770723966e+003	(-3.69906393322305e+000dB,4.29657872657213e+001°)
1.15443779758272e+003	(-3.67412664612961e+000dB,4.28546448626850e+001°)
1.16029788792578e+003	(-3.64941902201854e+000dB,4.27437933209503e+001°)
1.16615797826884e+003	(-3.62493844551131e+000dB,4.26332353084776e+001°)
1.17201806861190e+003	(-3.60068233694965e+000dB,4.25229733862071e+001°)
1.17787815895495e+003	(-3.57664815154888e+000dB,4.24130100107938e+001°)
1.18373824929801e+003	(-3.55283337916666e+000dB,4.23033475374105e+001°)
1.18959833964107e+003	(-3.52923554343908e+000dB,4.21939882223269e+001°)
1.19545842998413e+003	(-3.50585220155862e+000dB,4.20849342255663e+001°)
1.20131852032719e+003	(-3.48268094336436e+000dB,4.19761876133302e+001°)
1.20717861067025e+003	(-3.45971939111464e+000dB,4.18677503605158e+001°)
1.21303870101331e+003	(-3.43696519865361e+000dB,4.17596243530227e+001°)
1.21889879135637e+003	(-3.41441605134130e+000dB,4.16518113901764e+001°)
1.22475888169943e+003	(-3.39206966513129e+000dB,4.15443131868874e+001°)
1.23061897204249e+003	(-3.36992378632878e+000dB,4.14371313759105e+001°)
1.23647906238555e+003	(-3.34797619094773e+000dB,4.13302675099497e+001°)
1.24233915272861e+003	(-3.32622468446031e+000dB,4.12237230637993e+001°)
1.24819924307167e+003	(-3.30466710113129e+000dB,4.11174994363304e+001°)
1.25405933341473e+003	(-3.28330130367606e+000dB,4.10115979525004e+001°)
1.25991942375779e+003	(-3.26212518272179e+000dB,4.09060198652626e+001°)
1.26577951410085e+003	(-3.24113665642782e+000dB,4.08007663574632e+001°)
1.27163960444391e+003	(-3.22033367014123e+000dB,4.06958385436965e+001°)
1.27749969478697e+003	(-3.19971419585550e+000dB,4.05912374720649e+001°)
1.28335978513003e+003	(-3.17927623181369e+000dB,4.04869641259270e+001°)
1.28921987547308e+003	(-3.15901780222847e+000dB,4.03830194256268e+001°)
1.29507996581614e+003	(-3.13893695669525e+000dB,4.02794042301062e+001°)
1.30094005615920e+003	(-3.11903176996808e+000dB,4.01761193385607e+001°)
1.30680014650226e+003	(-3.09930034141439e+000dB,4.00731654919757e+001°)
1.31266023684532e+003	(-3.07974079492760e+000dB,3.99705433747324e+001°)
1.31852032718838e+003	(-3.06035127821819e+000dB,3.98682536160245e+001°)
1.32438041753144e+003	(-3.04112996254842e+000dB,3.97662967913422e+001°)
1.33024050787450e+003	(-3.02207504263717e+000dB,3.96646734239603e+001°)
1.33610059821756e+003	(-3.00318473602510e+000dB,3.95633839862593e+001°)
1.34196068856062e+003	(-2.98445728273252e+000dB,3.94624289010812e+001°)
1.34782077890368e+003	(-2.96589094511451e+000dB,3.93618085430978e+001°)
1.35368086924674e+003	(-2.94748400742145e+000dB,3.92615232400752e+001°)
1.35954095958980e+003	(-2.92923477543363e+000dB,3.91615732741216e+001°)
1.36540104993286e+003	(-2.91114157627881e+000dB,3.90619588829485e+001°)
1.37126114027592e+003	(-2.89320275792782e+000dB,3.89626802610222e+001°)
1.37712123061898e+003	(-2.87541668906392e+000dB,3.88637375607750e+001°)
1.38298132096204e+003	(-2.85778175871161e+000dB,3.87651308937293e+001°)
1.38884141130510e+003	(-2.84029637592540e+000dB,3.86668603316061e+001°)
1.39470150164816e+003	(-2.82295896952438e+000dB,3.85689259074176e+001°)
1.40056159199122e+003	(-2.80576798776349e+000dB,3.84713276165162e+001°)
1.40642168233427e+003	(-2.78872189814584e+000dB,3.83740654176509e+001°)
1.41228177267733e+003	(-2.77181918706268e+000dB,3.82771392339563e+001°)
1.41814186302039e+003	(-2.75505835951961e+000dB,3.81805489539369e+001°)
1.42400195336345e+003	(-2.73843793896258e+000dB,3.80842944324500e+001°)
1.42986204370651e+003	(-2.72195646689055e+000dB,3.79883754916140e+001°)
1.43572213404957e+003	(-2.70561250263567e+000dB,3.78927919217330e+001°)
1.44158222439263e+003	(-2.68940462321576e+000dB,3.77975434822153e+001°)
1.44744231473569e+003	(-2.67333142295950e+000dB,3.77026299024157e+001°)
1.45330240507875e+003	(-2.65739151327189e+000dB,3.76080508824889e+001°)
1.45916249542181e+003	(-2.64158352243065e+000dB,3.75138060942295e+001°)
1.46502258576487e+003	(-2.62590609538660e+000dB,3.74198951818918e+001°)
1.47088267610793e+003	(-2.61035789349978e+000dB,3.73263177629740e+001°)
1.47674276645099e+003	(-2.59493759418409e+000dB,3.72330734289607e+001°)
1.48260285679405e+003	(-2.57964389092266e+000dB,3.71401617461348e+001°)
1.48846294713711e+003	(-2.56447549281100e+000dB,3.70475822562574e+001°)
1.49432303748017e+003	(-2.54943112452496e+000dB,3.69553344773311e+001°)
1.50018312782323e+003	(-2.53450952602022e+000dB,3.68634179042812e+001°)
1.50604321816629e+003	(-2.51970945224894e+000dB,3.67718320096230e+001°)
1.51190330850935e+003	(-2.50502967306964e+000dB,3.66805762441589e+001°)
1.51776339885240e+003	(-2.49046897307893e+000dB,3.65896500376395e+001°)
1.52362348919546e+003	(-2.47602615122900e+000dB,3.64990527993571e+001°)
1.52948357953852e+003	(-2.46170002078778e+000dB,3.64087839188060e+001°)
1.53534366988158e+003	(-2.44748940900327e+000dB,3.63188427662556e+001°)
1.54120376022464e+003	(-2.43339315716486e+000dB,3.62292286934042e+001°)
1.54706385056770e+003	(-2.41941012008327e+000dB,3.61399410338773e+001°)
1.55292394091076e+003	(-2.40553916617126e+000dB,3.60509791038575e+001°)
1.55878403125382e+003	(-2.39177917710582e+000dB,3.59623422025978e+001°)
1.56464412159688e+003	(-2.37812904777846e+000dB,3.58740296129919e+001°)
1.57050421193994e+003	(-2.36458768588166e+000dB,3.57860406020425e+001°)
1.57636430228300e+003	(-2.35115401205424e+000dB,3.56983744214510e+001°)
1.58222439262606e+003	(-2.33782695943252e+000dB,3.56110303080522e+001°)
1.58808448296912e+003	(-2.32460547380064e+000dB,3.55240074843791e+001°)
1.59394457331218e+003	(-2.31148851288919e+000dB,3.54373051590129e+001°)
1.59980466365524e+003	(-2.29847504681520e+000dB,3.53509225271920e+001°)
1.60566475399830e+003	(-2.28556405752126e+000dB,3.52648587711724e+001°)
1.61152484434136e+003	(-2.27275453877283e+000dB,3.51791130607082e+001°)
1.61738493468442e+003	(-2.26004549604935e+000dB,3.50936845534963e+001°)
1.62324502502748e+003	(-2.24743594615308e+000dB,3.50085723955431e+001°)
